time	V(n001)	V(n003)
0.000000000000000e+00	0.000000e+00	0.000000e+00
3.920090880610758e-07	2.465980e-02	-2.131544e-07
7.840181761221516e-07	4.926927e-02	-4.354801e-08
1.176027264183227e-06	7.382840e-02	5.088193e-07
1.568036352244303e-06	9.833721e-02	1.443948e-06
1.960045440305379e-06	1.227957e-01	2.761837e-06
2.352054528366455e-06	1.472038e-01	4.462487e-06
2.744063616427530e-06	1.715616e-01	6.545898e-06
3.631154056963095e-06	2.261779e-01	1.468240e-05
4.607716556963095e-06	2.854840e-01	2.873002e-05
5.584279056963095e-06	3.437155e-01	4.941773e-05
6.560841556963095e-06	4.006534e-01	7.806631e-05
7.537404056963095e-06	4.560833e-01	1.158001e-04
8.513966556963096e-06	5.097966e-01	1.636563e-04
9.490529056963097e-06	5.615911e-01	2.225833e-04
1.046709155696310e-05	6.112719e-01	2.934393e-04
1.144365405696310e-05	6.586521e-01	3.769911e-04
1.339677905696310e-05	7.458063e-01	5.847865e-04
1.534990405696310e-05	8.217430e-01	8.502472e-04
1.730302905696310e-05	8.853198e-01	1.176157e-03
1.925615405696311e-05	9.355806e-01	1.563815e-03
2.120927905696311e-05	9.717695e-01	2.013067e-03
2.316240405696311e-05	9.933419e-01	2.522345e-03
2.511552905696311e-05	9.999737e-01	3.088738e-03
2.706865405696311e-05	9.915648e-01	3.708067e-03
2.902177905696311e-05	9.682419e-01	4.374985e-03
3.097490405696311e-05	9.303558e-01	5.083084e-03
3.292802905696311e-05	8.784763e-01	5.825025e-03
3.488115405696312e-05	8.133836e-01	6.592672e-03
3.683427905696312e-05	7.360569e-01	7.377235e-03
3.878740405696312e-05	6.476592e-01	8.169430e-03
4.074052905696312e-05	5.495201e-01	8.959633e-03
4.269365405696312e-05	4.431157e-01	9.738050e-03
4.464677905696313e-05	3.300464e-01	1.049487e-02
4.659990405696313e-05	2.120130e-01	1.122045e-02
4.855302905696313e-05	9.079067e-02	1.190543e-02
4.952959155696313e-05	2.955233e-02	1.222991e-02
5.148271655696313e-05	-9.302713e-02	1.283756e-02
5.343584155696313e-05	-2.142074e-01	1.338362e-02
5.538896655696313e-05	-3.321657e-01	1.386099e-02
5.734209155696314e-05	-4.451280e-01	1.426351e-02
5.929521655696314e-05	-5.513952e-01	1.458604e-02
6.124834155696314e-05	-6.493688e-01	1.482453e-02
6.320146655696314e-05	-7.375754e-01	1.497615e-02
6.515459155696314e-05	-8.146881e-01	1.503928e-02
6.710771655696314e-05	-8.795471e-01	1.501357e-02
6.906084155696315e-05	-9.311770e-01	1.489992e-02
7.101396655696315e-05	-9.688010e-01	1.470053e-02
7.296709155696315e-05	-9.918534e-01	1.441881e-02
7.492021655696315e-05	-9.999874e-01	1.405936e-02
7.687334155696315e-05	-9.930807e-01	1.362792e-02
7.882646655696316e-05	-9.712371e-01	1.313127e-02
8.077959155696316e-05	-9.347852e-01	1.257711e-02
8.273271655696316e-05	-8.842732e-01	1.197400e-02
8.468584155696316e-05	-8.204610e-01	1.133118e-02
8.663896655696316e-05	-7.443083e-01	1.065847e-02
8.859209155696316e-05	-6.569605e-01	9.966122e-03
8.956865405696316e-05	-6.094929e-01	9.615857e-03
9.054521655696317e-05	-5.597314e-01	9.264636e-03
9.152177905696317e-05	-5.078631e-01	8.913789e-03
9.249834155696317e-05	-4.540834e-01	8.564644e-03
9.347490405696317e-05	-3.985945e-01	8.218521e-03
9.445146655696317e-05	-3.416055e-01	7.876730e-03
9.542802905696317e-05	-2.833307e-01	7.540559e-03
9.640459155696317e-05	-2.239896e-01	7.211277e-03
9.738115405696317e-05	-1.638054e-01	6.890127e-03
9.835771655696317e-05	-1.030047e-01	6.578316e-03
9.933427905696317e-05	-4.181628e-02	6.277018e-03
1.003108415569632e-04	1.952951e-02	5.987368e-03
1.012874040569632e-04	8.080180e-02	5.710452e-03
1.022639665569632e-04	1.417700e-01	5.447311e-03
1.032405290569632e-04	2.022045e-01	5.198932e-03
1.042170915569632e-04	2.618781e-01	4.966245e-03
1.051936540569632e-04	3.205659e-01	4.750122e-03
1.061702165569632e-04	3.780473e-01	4.551369e-03
1.071467790569632e-04	4.341058e-01	4.370729e-03
1.081233415569632e-04	4.885303e-01	4.208875e-03
1.090999040569632e-04	5.411162e-01	4.066409e-03
1.100764665569632e-04	5.916654e-01	3.943857e-03
1.110530290569632e-04	6.399877e-01	3.841674e-03
1.130061540569632e-04	7.292333e-01	3.699834e-03
1.149592790569632e-04	8.075104e-01	3.642943e-03
1.169124040569632e-04	8.736419e-01	3.671768e-03
1.188655290569632e-04	9.266331e-01	3.785783e-03
1.208186540569632e-04	9.656867e-01	3.983171e-03
1.227717790569632e-04	9.902155e-01	4.260858e-03
1.247249040569632e-04	9.998506e-01	4.614555e-03
1.266780290569632e-04	9.944470e-01	5.038827e-03
1.286311540569632e-04	9.740860e-01	5.527170e-03
1.305842790569632e-04	9.390738e-01	6.072117e-03
1.325374040569632e-04	8.899371e-01	6.665340e-03
1.344905290569632e-04	8.274149e-01	7.297786e-03
1.364436540569632e-04	7.524476e-01	7.959808e-03
1.383967790569632e-04	6.661628e-01	8.641311e-03
1.403499040569632e-04	5.698583e-01	9.331904e-03
1.423030290569632e-04	4.649826e-01	1.002106e-02
1.442561540569632e-04	3.531131e-01	1.069826e-02
1.462092790569632e-04	2.359325e-01	1.135318e-02
1.481624040569632e-04	1.152032e-01	1.197583e-02
1.501155290569632e-04	-7.258841e-03	1.255667e-02
1.520686540569632e-04	-1.296117e-01	1.308684e-02
1.540217790569632e-04	-2.500151e-01	1.355819e-02
1.559749040569632e-04	-3.666580e-01	1.396349e-02
1.579280290569632e-04	-4.777860e-01	1.429649e-02
1.598811540569632e-04	-5.817277e-01	1.455202e-02
1.618342790569632e-04	-6.769197e-01	1.472608e-02
1.637874040569632e-04	-7.619302e-01	1.481590e-02
1.657405290569632e-04	-8.354805e-01	1.481997e-02
1.676936540569632e-04	-8.964644e-01	1.473806e-02
1.696467790569632e-04	-9.439647e-01	1.457126e-02
1.715999040569632e-04	-9.772668e-01	1.432190e-02
1.735530290569632e-04	-9.958700e-01	1.399359e-02
1.755061540569632e-04	-9.994943e-01	1.359110e-02
1.774592790569632e-04	-9.880853e-01	1.312031e-02
1.794124040569632e-04	-9.618146e-01	1.258816e-02
1.813655290569632e-04	-9.210774e-01	1.200248e-02
1.833186540569632e-04	-8.664862e-01	1.137193e-02
1.852717790569632e-04	-7.988623e-01	1.070582e-02
1.872249040569632e-04	-7.192227e-01	1.001401e-02
1.882014665569632e-04	-6.752648e-01	9.661657e-03
1.891780290569632e-04	-6.287654e-01	9.306744e-03
1.901545915569632e-04	-5.798994e-01	8.950585e-03
1.911311540569632e-04	-5.288509e-01	8.594500e-03
1.921077165569632e-04	-4.758118e-01	8.239810e-03
1.930842790569632e-04	-4.209819e-01	7.887829e-03
1.940608415569632e-04	-3.645675e-01	7.539860e-03
1.950374040569632e-04	-3.067810e-01	7.197195e-03
1.960139665569632e-04	-2.478398e-01	6.861102e-03
1.969905290569632e-04	-1.879658e-01	6.532826e-03
1.979670915569632e-04	-1.273844e-01	6.213582e-03
1.989436540569632e-04	-6.632345e-02	5.904552e-03
1.999202165569632e-04	-5.012921e-03	5.606877e-03
2.008967790569633e-04	5.631648e-02	5.321659e-03
2.018733415569633e-04	1.174339e-01	5.049950e-03
2.028499040569633e-04	1.781094e-01	4.792755e-03
2.038264665569633e-04	2.381144e-01	4.551018e-03
2.048030290569633e-04	2.972233e-01	4.325630e-03
2.057795915569633e-04	3.552135e-01	4.117420e-03
2.067561540569633e-04	4.118668e-01	3.927151e-03
2.077327165569633e-04	4.669698e-01	3.755518e-03
2.087092790569633e-04	5.203153e-01	3.603147e-03
2.096858415569633e-04	5.717025e-01	3.470592e-03
2.106624040569633e-04	6.209379e-01	3.358331e-03
2.116389665569633e-04	6.678362e-01	3.266766e-03
2.135920915569633e-04	7.539250e-01	3.146945e-03
2.155452165569633e-04	8.286741e-01	3.112769e-03
2.174983415569633e-04	8.909592e-01	3.164590e-03
2.194514665569633e-04	9.398434e-01	3.301468e-03
2.214045915569633e-04	9.745916e-01	3.521181e-03
2.233577165569633e-04	9.946809e-01	3.820266e-03
2.253108415569633e-04	9.998093e-01	4.194061e-03
2.272639665569633e-04	9.898996e-01	4.636785e-03
2.292170915569633e-04	9.651009e-01	5.141616e-03
2.311702165569633e-04	9.257863e-01	5.700801e-03
2.331233415569633e-04	8.725469e-01	6.305770e-03
2.350764665569633e-04	8.061836e-01	6.947263e-03
2.370295915569633e-04	7.276946e-01	7.615470e-03
2.389827165569633e-04	6.382604e-01	8.300181e-03
2.409358415569633e-04	5.392261e-01	8.990938e-03
2.428889665569633e-04	4.320813e-01	9.677192e-03
2.448420915569633e-04	3.184377e-01	1.034846e-02
2.467952165569633e-04	2.000045e-01	1.099449e-02
2.487483415569633e-04	7.856297e-02	1.160540e-02
2.497249040569633e-04	1.728393e-02	1.189474e-02
2.516780290569633e-04	-1.052384e-01	1.243565e-02
2.536311540569633e-04	-2.261779e-01	1.291938e-02
2.555842790569633e-04	-3.437155e-01	1.333847e-02
2.575374040569633e-04	-4.560833e-01	1.368649e-02
2.594905290569633e-04	-5.615911e-01	1.395802e-02
2.614436540569633e-04	-6.586521e-01	1.414883e-02
2.633967790569633e-04	-7.458063e-01	1.425589e-02
2.653499040569633e-04	-8.217430e-01	1.427744e-02
2.673030290569633e-04	-8.853198e-01	1.421298e-02
2.692561540569633e-04	-9.355806e-01	1.406334e-02
2.712092790569633e-04	-9.717695e-01	1.383061e-02
2.731624040569633e-04	-9.933419e-01	1.351813e-02
2.751155290569633e-04	-9.999737e-01	1.313044e-02
2.770686540569633e-04	-9.915648e-01	1.267322e-02
2.790217790569633e-04	-9.682419e-01	1.215319e-02
2.809749040569633e-04	-9.303558e-01	1.157802e-02
2.829280290569633e-04	-8.784763e-01	1.095619e-02
2.848811540569633e-04	-8.133836e-01	1.029692e-02
2.868342790569633e-04	-7.360569e-01	9.609947e-03
2.878108415569633e-04	-6.931625e-01	9.259246e-03
2.887874040569633e-04	-6.476592e-01	8.905463e-03
2.897639665569633e-04	-5.997182e-01	8.549909e-03
2.907405290569633e-04	-5.495201e-01	8.193905e-03
2.917170915569633e-04	-4.972537e-01	7.838769e-03
2.926936540569633e-04	-4.431157e-01	7.485819e-03
2.936702165569633e-04	-3.873100e-01	7.136365e-03
2.946467790569633e-04	-3.300464e-01	6.791702e-03
2.956233415569633e-04	-2.715407e-01	6.453109e-03
2.965999040569633e-04	-2.120130e-01	6.121840e-03
2.975764665569633e-04	-1.516873e-01	5.799123e-03
2.985530290569633e-04	-9.079067e-02	5.486153e-03
2.995295915569633e-04	-2.955233e-02	5.184089e-03
3.005061540569633e-04	3.179724e-02	4.894048e-03
3.014827165569633e-04	9.302713e-02	4.617103e-03
3.024592790569633e-04	1.539069e-01	4.354277e-03
3.034358415569633e-04	2.142074e-01	4.106539e-03
3.044124040569633e-04	2.737016e-01	3.874803e-03
3.053889665569633e-04	3.321657e-01	3.659923e-03
3.063655290569633e-04	3.893797e-01	3.462687e-03
3.073420915569633e-04	4.451280e-01	3.283819e-03
3.083186540569633e-04	4.992010e-01	3.123972e-03
3.092952165569633e-04	5.513952e-01	2.983729e-03
3.102717790569633e-04	6.015140e-01	2.863600e-03
3.112483415569633e-04	6.493688e-01	2.764016e-03
3.122249040569633e-04	6.947796e-01	2.685333e-03
3.141780290569634e-04	7.775950e-01	2.591701e-03
3.161311540569634e-04	8.487148e-01	2.583958e-03
3.180842790569634e-04	9.070690e-01	2.662069e-03
3.200374040569634e-04	9.517801e-01	2.824706e-03
3.219905290569634e-04	9.821756e-01	3.069270e-03
3.239436540569634e-04	9.977982e-01	3.391931e-03
3.258967790569634e-04	9.984130e-01	3.787685e-03
3.278499040569634e-04	9.840107e-01	4.250426e-03
3.298030290569634e-04	9.548080e-01	4.773044e-03
3.317561540569634e-04	9.112441e-01	5.347526e-03
3.337092790569634e-04	8.539742e-01	5.965081e-03
3.356624040569634e-04	7.838598e-01	6.616268e-03
3.376155290569634e-04	7.019554e-01	7.291143e-03
3.395686540569634e-04	6.094929e-01	7.979404e-03
3.415217790569634e-04	5.078631e-01	8.670549e-03
3.434749040569634e-04	3.985945e-01	9.354033e-03
3.454280290569634e-04	2.833307e-01	1.001942e-02
3.473811540569634e-04	1.638054e-01	1.065656e-02
3.493342790569634e-04	4.181628e-02	1.125572e-02
3.512874040569634e-04	-8.080180e-02	1.180774e-02
3.532405290569634e-04	-2.022045e-01	1.230415e-02
3.551936540569634e-04	-3.205659e-01	1.273736e-02
3.571467790569634e-04	-4.341058e-01	1.310068e-02
3.590999040569634e-04	-5.411162e-01	1.338852e-02
3.610530290569634e-04	-6.399877e-01	1.359639e-02
3.630061540569634e-04	-7.292333e-01	1.372102e-02
3.649592790569634e-04	-8.075104e-01	1.376037e-02
3.669124040569634e-04	-8.736419e-01	1.371373e-02
3.688655290569634e-04	-9.266331e-01	1.358163e-02
3.708186540569634e-04	-9.656867e-01	1.336592e-02
3.727717790569634e-04	-9.902155e-01	1.306969e-02
3.747249040569634e-04	-9.998506e-01	1.269725e-02
3.766780290569634e-04	-9.944470e-01	1.225406e-02
3.786311540569634e-04	-9.740860e-01	1.174664e-02
3.805842790569634e-04	-9.390738e-01	1.118246e-02
3.825374040569634e-04	-8.899371e-01	1.056988e-02
3.844905290569634e-04	-8.274149e-01	9.917956e-03
3.864436540569634e-04	-7.524476e-01	9.236349e-03
3.874202165569634e-04	-7.106426e-01	8.887557e-03
3.883967790569634e-04	-6.661628e-01	8.535163e-03
3.893733415569634e-04	-6.191758e-01	8.180472e-03
3.903499040569634e-04	-5.698583e-01	7.824801e-03
3.913264665569634e-04	-5.183960e-01	7.469472e-03
3.923030290569634e-04	-4.649826e-01	7.115801e-03
3.932795915569634e-04	-4.098191e-01	6.765105e-03
3.942561540569634e-04	-3.531131e-01	6.418683e-03
3.952327165569634e-04	-2.950781e-01	6.077821e-03
3.962092790569634e-04	-2.359325e-01	5.743784e-03
3.971858415569634e-04	-1.758989e-01	5.417812e-03
3.981624040569634e-04	-1.152032e-01	5.101113e-03
3.991389665569634e-04	-5.407394e-02	4.794860e-03
4.001155290569634e-04	7.258841e-03	4.500189e-03
4.010920915569634e-04	6.856430e-02	4.218190e-03
4.020686540569634e-04	1.296117e-01	3.949908e-03
4.030452165569634e-04	1.901713e-01	3.696332e-03
4.040217790569634e-04	2.500151e-01	3.458399e-03
4.049983415569634e-04	3.089179e-01	3.236988e-03
4.059749040569634e-04	3.666580e-01	3.032913e-03
4.069514665569634e-04	4.230181e-01	2.846925e-03
4.079280290569634e-04	4.777860e-01	2.679704e-03
4.089045915569634e-04	5.307557e-01	2.531864e-03
4.098811540569634e-04	5.817277e-01	2.403941e-03
4.108577165569634e-04	6.305103e-01	2.296401e-03
4.118342790569634e-04	6.769197e-01	2.209628e-03
4.128108415569634e-04	7.207814e-01	2.143933e-03
4.147639665569634e-04	8.002113e-01	2.076610e-03
4.167170915569634e-04	8.676052e-01	2.095301e-03
4.186702165569634e-04	9.219496e-01	2.199582e-03
4.206233415569634e-04	9.624270e-01	2.387741e-03
4.225764665569634e-04	9.884285e-01	2.656804e-03
4.245295915569634e-04	9.995632e-01	3.002583e-03
4.264827165569635e-04	9.956636e-01	3.419733e-03
4.284358415569635e-04	9.767882e-01	3.901839e-03
4.303889665569635e-04	9.432210e-01	4.441505e-03
4.323420915569635e-04	8.954669e-01	5.030474e-03
4.342952165569635e-04	8.342442e-01	5.659744e-03
4.362483415569635e-04	7.604736e-01	6.319709e-03
4.382014665569635e-04	6.752648e-01	7.000301e-03
4.401545915569635e-04	5.798994e-01	7.691142e-03
4.421077165569635e-04	4.758118e-01	8.381699e-03
4.440608415569635e-04	3.645675e-01	9.061445e-03
4.460139665569635e-04	2.478398e-01	9.720016e-03
4.479670915569635e-04	1.273844e-01	1.034736e-02
4.499202165569635e-04	5.012921e-03	1.093391e-02
4.518733415569635e-04	-1.174339e-01	1.147070e-02
4.538264665569635e-04	-2.381144e-01	1.194951e-02
4.557795915569635e-04	-3.552135e-01	1.236301e-02
4.577327165569635e-04	-4.669698e-01	1.270483e-02
4.596858415569635e-04	-5.717025e-01	1.296969e-02
4.616389665569635e-04	-6.678362e-01	1.315348e-02
4.635920915569635e-04	-7.539250e-01	1.325327e-02
4.655452165569635e-04	-8.286741e-01	1.326745e-02
4.674983415569635e-04	-8.909592e-01	1.319564e-02
4.694514665569635e-04	-9.398434e-01	1.303881e-02
4.714045915569635e-04	-9.745916e-01	1.279915e-02
4.733577165569635e-04	-9.946809e-01	1.248015e-02
4.753108415569635e-04	-9.998093e-01	1.208646e-02
4.772639665569635e-04	-9.898996e-01	1.162386e-02
4.792170915569635e-04	-9.651009e-01	1.109918e-02
4.811702165569635e-04	-9.257863e-01	1.052016e-02
4.831233415569635e-04	-8.725469e-01	9.895383e-03
4.850764665569635e-04	-8.061836e-01	9.234106e-03
4.870295915569635e-04	-7.276946e-01	8.546136e-03
4.880061540569635e-04	-6.842652e-01	8.195321e-03
4.889827165569635e-04	-6.382604e-01	7.841685e-03
4.899592790569635e-04	-5.898532e-01	7.486542e-03
4.909358415569635e-04	-5.392261e-01	7.131211e-03
4.919124040569635e-04	-4.865694e-01	6.777013e-03
4.928889665569635e-04	-4.320813e-01	6.425263e-03
4.938655290569635e-04	-3.759671e-01	6.077269e-03
4.948420915569635e-04	-3.184377e-01	5.734323e-03
4.958186540569635e-04	-2.597098e-01	5.397699e-03
4.967952165569635e-04	-2.000045e-01	5.068647e-03
4.977717790569635e-04	-1.395463e-01	4.748388e-03
4.987483415569635e-04	-7.856297e-02	4.438111e-03
4.997249040569635e-04	-1.728393e-02	4.138966e-03
5.007014665569635e-04	4.406017e-02	3.852062e-03
5.016780290569635e-04	1.052384e-01	3.578463e-03
5.026545915569635e-04	1.660206e-01	3.319180e-03
5.036311540569635e-04	2.261779e-01	3.075173e-03
5.046077165569635e-04	2.854840e-01	2.847344e-03
5.055842790569635e-04	3.437155e-01	2.636532e-03
5.065608415569635e-04	4.006534e-01	2.443514e-03
5.075374040569635e-04	4.560833e-01	2.269000e-03
5.085139665569635e-04	5.097966e-01	2.113629e-03
5.094905290569635e-04	5.615911e-01	1.977970e-03
5.104670915569635e-04	6.112719e-01	1.862516e-03
5.114436540569635e-04	6.586521e-01	1.767685e-03
5.124202165569635e-04	7.035532e-01	1.693817e-03
5.133967790569635e-04	7.458063e-01	1.641173e-03
5.153499040569635e-04	8.217430e-01	1.600200e-03
5.173030290569635e-04	8.853198e-01	1.645250e-03
5.192561540569635e-04	9.355806e-01	1.775509e-03
5.212092790569635e-04	9.717695e-01	1.988885e-03
5.231624040569635e-04	9.933419e-01	2.282033e-03
5.251155290569635e-04	9.999737e-01	2.650410e-03
5.270686540569635e-04	9.915648e-01	3.088341e-03
5.290217790569635e-04	9.682419e-01	3.589107e-03
5.309749040569635e-04	9.303558e-01	4.145041e-03
5.329280290569635e-04	8.784763e-01	4.747647e-03
5.348811540569635e-04	8.133836e-01	5.387730e-03
5.368342790569635e-04	7.360569e-01	6.055529e-03
5.387874040569636e-04	6.476592e-01	6.740866e-03
5.407405290569636e-04	5.495201e-01	7.433300e-03
5.426936540569636e-04	4.431157e-01	8.122284e-03
5.446467790569636e-04	3.300464e-01	8.797323e-03
5.465999040569636e-04	2.120130e-01	9.448131e-03
5.485530290569636e-04	9.079067e-02	1.006479e-02
5.495295915569636e-04	2.955233e-02	1.035734e-02
5.514827165569636e-04	-9.302713e-02	1.090533e-02
5.534358415569636e-04	-2.142074e-01	1.139692e-02
5.553889665569636e-04	-3.321657e-01	1.182459e-02
5.573420915569636e-04	-4.451280e-01	1.218177e-02
5.592952165569636e-04	-5.513952e-01	1.246295e-02
5.612483415569636e-04	-6.493688e-01	1.266378e-02
5.632014665569636e-04	-7.375754e-01	1.278111e-02
5.651545915569636e-04	-8.146881e-01	1.281304e-02
5.671077165569636e-04	-8.795471e-01	1.275896e-02
5.690608415569636e-04	-9.311770e-01	1.261955e-02
5.710139665569636e-04	-9.688010e-01	1.239678e-02
5.729670915569636e-04	-9.918534e-01	1.209387e-02
5.749202165569636e-04	-9.999874e-01	1.171525e-02
5.768733415569636e-04	-9.930807e-01	1.126647e-02
5.788264665569636e-04	-9.712371e-01	1.075417e-02
5.807795915569636e-04	-9.347852e-01	1.018592e-02
5.827327165569636e-04	-8.842732e-01	9.570127e-03
5.846858415569636e-04	-8.204610e-01	8.915935e-03
5.856624040569636e-04	-7.838598e-01	8.577454e-03
5.866389665569636e-04	-7.443083e-01	8.233051e-03
5.876155290569636e-04	-7.019554e-01	7.884007e-03
5.885920915569636e-04	-6.569605e-01	7.531618e-03
5.895686540569636e-04	-6.094929e-01	7.177196e-03
5.905452165569636e-04	-5.597314e-01	6.822058e-03
5.915217790569636e-04	-5.078631e-01	6.467524e-03
5.924983415569636e-04	-4.540834e-01	6.114913e-03
5.934749040569636e-04	-3.985945e-01	5.765536e-03
5.944514665569636e-04	-3.416055e-01	5.420693e-03
5.954280290569636e-04	-2.833307e-01	5.081664e-03
5.964045915569636e-04	-2.239896e-01	4.749710e-03
5.973811540569636e-04	-1.638054e-01	4.426064e-03
5.983577165569636e-04	-1.030047e-01	4.111928e-03
5.993342790569636e-04	-4.181628e-02	3.808469e-03
6.003108415569636e-04	1.952951e-02	3.516813e-03
6.012874040569636e-04	8.080180e-02	3.238042e-03
6.022639665569636e-04	1.417700e-01	2.973188e-03
6.032405290569636e-04	2.022045e-01	2.723234e-03
6.042170915569636e-04	2.618781e-01	2.489102e-03
6.051936540569636e-04	3.205659e-01	2.271660e-03
6.061702165569636e-04	3.780473e-01	2.071709e-03
6.071467790569636e-04	4.341058e-01	1.889986e-03
6.081233415569636e-04	4.885303e-01	1.727158e-03
6.090999040569636e-04	5.411162e-01	1.583824e-03
6.100764665569636e-04	5.916654e-01	1.460506e-03
6.110530290569636e-04	6.399877e-01	1.357654e-03
