time	V(n001)	V(n003)
0.000000000000000e+00	0.000000e+00	0.000000e+00
4.581578319724231e-07	1.439939e-02	-1.663107e-07
9.163156639448463e-07	2.878869e-02	-3.130265e-08
1.374473495917269e-06	4.316790e-02	4.050241e-07
1.832631327889693e-06	5.753701e-02	1.142670e-06
2.290789159862116e-06	7.189603e-02	2.181634e-06
2.748946991834539e-06	8.624496e-02	3.521917e-06
3.207104823806961e-06	1.005838e-01	5.163518e-06
4.183667323806961e-06	1.310557e-01	1.100175e-05
5.160229823806961e-06	1.614043e-01	1.986110e-05
6.136792323806961e-06	1.916009e-01	3.250130e-05
7.113354823806961e-06	2.216172e-01	4.953867e-05
8.089917323806962e-06	2.514250e-01	7.155840e-05
9.066479823806963e-06	2.809961e-01	9.911517e-05
1.004304232380696e-05	3.103027e-01	1.327337e-04
1.101960482380696e-05	3.393174e-01	1.729092e-04
1.199616732380697e-05	3.680126e-01	2.201081e-04
1.297272982380697e-05	3.963615e-01	2.747686e-04
1.492585482380697e-05	4.519138e-01	4.080874e-04
1.687897982380697e-05	5.057653e-01	5.758218e-04
1.980866732380697e-05	5.829117e-01	8.973828e-04
2.273835482380698e-05	6.551238e-01	1.308829e-03
2.566804232380698e-05	7.217901e-01	1.815046e-03
2.859772982380698e-05	7.823464e-01	2.419067e-03
3.152741732380698e-05	8.362799e-01	3.122173e-03
3.445710482380698e-05	8.831342e-01	3.923991e-03
3.710777446666413e-05	9.194274e-01	4.744385e-03
3.975844410952127e-05	9.489748e-01	5.630845e-03
4.240911375237842e-05	9.717766e-01	6.583371e-03
4.505978339523557e-05	9.878327e-01	7.601962e-03
4.771045303809271e-05	9.971432e-01	8.686620e-03
5.036112268094986e-05	9.997079e-01	9.837343e-03
5.301179232380700e-05	9.955270e-01	1.105413e-02
5.622049768094986e-05	9.799721e-01	1.260862e-02
5.942920303809272e-05	9.553642e-01	1.417956e-02
6.263790839523558e-05	9.217031e-01	1.576697e-02
6.584661375237845e-05	8.789889e-01	1.737083e-02
6.905531910952130e-05	8.272216e-01	1.899116e-02
7.226402446666417e-05	7.664013e-01	2.062794e-02
7.547272982380702e-05	6.965278e-01	2.228118e-02
7.756536375237845e-05	6.472893e-01	2.332525e-02
7.965799768094989e-05	5.958383e-01	2.433865e-02
8.175063160952131e-05	5.421747e-01	2.532137e-02
8.384326553809274e-05	4.862985e-01	2.627342e-02
8.593589946666418e-05	4.282098e-01	2.719479e-02
8.802853339523560e-05	3.679084e-01	2.808549e-02
9.012116732380703e-05	3.053945e-01	2.894552e-02
9.123723875237846e-05	2.717209e-01	2.938230e-02
9.235331018094990e-05	2.378182e-01	2.980475e-02
9.346938160952132e-05	2.036866e-01	3.021287e-02
9.458545303809275e-05	1.693260e-01	3.060667e-02
9.570152446666419e-05	1.347364e-01	3.098615e-02
9.681759589523561e-05	9.991777e-02	3.135130e-02
9.793366732380704e-05	6.487017e-02	3.170212e-02
1.018399173238070e-04	-5.777052e-02	3.279782e-02
1.033745155380928e-04	-1.060888e-01	3.317295e-02
1.049091137523785e-04	-1.538865e-01	3.351277e-02
1.064437119666642e-04	-2.011635e-01	3.381730e-02
1.079783101809499e-04	-2.479199e-01	3.408652e-02
1.095129083952356e-04	-2.941556e-01	3.432044e-02
1.110475066095213e-04	-3.398707e-01	3.451905e-02
1.125821048238071e-04	-3.850652e-01	3.468237e-02
1.134191583952356e-04	-4.092387e-01	3.475508e-02
1.142562119666642e-04	-4.330887e-01	3.481660e-02
1.150932655380928e-04	-4.566151e-01	3.486692e-02
1.159303191095213e-04	-4.798180e-01	3.490604e-02
1.167673726809499e-04	-5.026973e-01	3.493397e-02
1.176044262523785e-04	-5.252531e-01	3.495070e-02
1.184414798238071e-04	-5.474853e-01	3.495624e-02
1.196970601809499e-04	-5.801765e-01	3.494305e-02
1.209526405380928e-04	-6.118466e-01	3.490476e-02
1.222082208952356e-04	-6.424956e-01	3.484135e-02
1.234638012523785e-04	-6.721236e-01	3.475283e-02
1.247193816095213e-04	-7.007304e-01	3.463921e-02
1.259749619666642e-04	-7.283163e-01	3.450047e-02
1.272305423238071e-04	-7.548810e-01	3.433663e-02
1.294626851809499e-04	-7.993930e-01	3.397932e-02
1.316948280380928e-04	-8.395456e-01	3.355232e-02
1.339269708952356e-04	-8.753387e-01	3.305563e-02
1.361591137523785e-04	-9.067723e-01	3.248923e-02
1.383912566095214e-04	-9.338466e-01	3.185315e-02
1.406233994666642e-04	-9.565613e-01	3.114736e-02
1.428555423238071e-04	-9.749167e-01	3.037189e-02
1.456457208952356e-04	-9.905867e-01	2.930641e-02
1.484358994666642e-04	-9.986675e-01	2.817983e-02
1.512260780380928e-04	-9.991592e-01	2.699214e-02
1.540162566095214e-04	-9.920618e-01	2.574336e-02
1.568064351809499e-04	-9.773752e-01	2.443348e-02
1.595966137523785e-04	-9.550996e-01	2.306249e-02
1.623867923238071e-04	-9.252347e-01	2.163040e-02
1.647584441095214e-04	-8.938310e-01	2.039611e-02
1.671300958952357e-04	-8.580363e-01	1.916638e-02
1.695017476809499e-04	-8.178504e-01	1.794122e-02
1.718733994666642e-04	-7.732734e-01	1.672064e-02
1.742450512523785e-04	-7.243054e-01	1.550462e-02
1.766167030380928e-04	-6.709463e-01	1.429317e-02
1.789883548238071e-04	-6.131961e-01	1.308628e-02
1.809414798238071e-04	-5.636030e-01	1.212657e-02
1.828946048238071e-04	-5.118886e-01	1.118914e-02
1.848477298238071e-04	-4.582476e-01	1.027743e-02
1.868008548238071e-04	-4.028819e-01	9.394808e-03
1.887539798238071e-04	-3.459997e-01	8.544501e-03
1.907071048238071e-04	-2.878154e-01	7.729634e-03
1.926602298238071e-04	-2.285477e-01	6.953191e-03
1.946133548238071e-04	-1.684199e-01	6.218014e-03
1.965664798238071e-04	-1.076582e-01	5.526789e-03
1.985196048238071e-04	-4.649122e-02	4.882035e-03
2.004727298238071e-04	1.485070e-02	4.286099e-03
2.024258548238071e-04	7.613672e-02	3.741143e-03
2.043789798238071e-04	1.371362e-01	3.249136e-03
2.063321048238071e-04	1.976195e-01	2.811850e-03
2.082852298238071e-04	2.573590e-01	2.430848e-03
2.102383548238071e-04	3.161299e-01	2.107484e-03
2.121914798238071e-04	3.737109e-01	1.842893e-03
2.141446048238071e-04	4.298854e-01	1.637992e-03
2.160977298238071e-04	4.844419e-01	1.493469e-03
2.180508548238071e-04	5.371751e-01	1.409789e-03
2.200039798238071e-04	5.878864e-01	1.387184e-03
2.219571048238071e-04	6.363851e-01	1.425661e-03
2.239102298238071e-04	6.824886e-01	1.524993e-03
2.258633548238071e-04	7.260233e-01	1.684725e-03
2.278164798238071e-04	7.668254e-01	1.904176e-03
2.307461673238071e-04	8.225721e-01	2.343283e-03
2.336758548238071e-04	8.713555e-01	2.910677e-03
2.366055423238071e-04	9.127627e-01	3.601286e-03
2.395352298238072e-04	9.464433e-01	4.408993e-03
2.424649173238072e-04	9.721121e-01	5.326690e-03
2.452550958952357e-04	9.888592e-01	6.318487e-03
2.480452744666643e-04	9.980100e-01	7.372683e-03
2.508354530380929e-04	9.995647e-01	8.489277e-03
2.536256316095215e-04	9.935231e-01	9.668269e-03
2.564158101809500e-04	9.798852e-01	1.090966e-02
2.592059887523786e-04	9.586511e-01	1.221345e-02
2.619961673238072e-04	9.298208e-01	1.357964e-02
2.649258548238072e-04	8.908786e-01	1.504972e-02
2.678555423238072e-04	8.455158e-01	1.650625e-02
2.707852298238072e-04	7.937324e-01	1.794923e-02
2.737149173238072e-04	7.355283e-01	1.937865e-02
2.766446048238072e-04	6.709035e-01	2.079452e-02
2.795742923238072e-04	5.998581e-01	2.219683e-02
2.825039798238072e-04	5.223920e-01	2.358559e-02
2.841780869666643e-04	4.765077e-01	2.434179e-02
2.858521941095215e-04	4.296378e-01	2.507252e-02
2.875263012523786e-04	3.817822e-01	2.577776e-02
2.892004083952357e-04	3.329410e-01	2.645751e-02
2.908745155380929e-04	2.831142e-01	2.711179e-02
2.925486226809500e-04	2.323016e-01	2.774058e-02
2.942227298238072e-04	1.805035e-01	2.834389e-02
2.949202744666644e-04	1.588817e-01	2.858425e-02
2.956178191095215e-04	1.372097e-01	2.881868e-02
2.963153637523787e-04	1.154874e-01	2.904717e-02
2.970129083952357e-04	9.371502e-02	2.926972e-02
2.977104530380929e-04	7.189239e-02	2.948634e-02
2.984079976809501e-04	5.001956e-02	2.969702e-02
2.991055423238072e-04	2.809652e-02	2.990177e-02
3.020352298238072e-04	-6.389508e-02	3.069054e-02
3.035698280380929e-04	-1.121879e-01	3.105868e-02
3.051044262523787e-04	-1.599463e-01	3.139170e-02
3.066390244666644e-04	-2.071701e-01	3.168961e-02
3.081736226809501e-04	-2.538595e-01	3.195242e-02
3.097082208952358e-04	-3.000144e-01	3.218011e-02
3.112428191095215e-04	-3.456348e-01	3.237270e-02
3.127774173238072e-04	-3.907207e-01	3.253017e-02
3.137539798238072e-04	-4.188368e-01	3.261030e-02
3.147305423238072e-04	-4.464948e-01	3.267524e-02
3.157071048238072e-04	-4.736949e-01	3.272499e-02
3.166836673238072e-04	-5.004369e-01	3.275955e-02
3.176602298238072e-04	-5.267210e-01	3.277891e-02
3.186367923238072e-04	-5.525471e-01	3.278309e-02
3.196133548238072e-04	-5.779151e-01	3.277208e-02
3.211479530380929e-04	-6.167752e-01	3.272304e-02
3.226825512523787e-04	-6.539969e-01	3.263706e-02
3.242171494666644e-04	-6.895804e-01	3.251412e-02
3.257517476809501e-04	-7.235257e-01	3.235422e-02
3.272863458952358e-04	-7.558326e-01	3.215737e-02
3.288209441095215e-04	-7.865014e-01	3.192356e-02
3.303555423238072e-04	-8.155318e-01	3.165280e-02
3.328667030380929e-04	-8.590519e-01	3.112420e-02
3.353778637523787e-04	-8.967492e-01	3.051468e-02
3.378890244666644e-04	-9.286237e-01	2.982422e-02
3.404001851809501e-04	-9.546754e-01	2.905283e-02
3.429113458952358e-04	-9.749043e-01	2.820050e-02
3.454225066095215e-04	-9.893104e-01	2.726725e-02
3.479336673238072e-04	-9.978937e-01	2.625306e-02
3.504448280380929e-04	-9.996889e-01	2.517090e-02
3.529559887523787e-04	-9.954429e-01	2.405087e-02
3.554671494666644e-04	-9.851554e-01	2.289298e-02
3.579783101809501e-04	-9.688266e-01	2.169721e-02
3.604894708952359e-04	-9.464565e-01	2.046359e-02
3.630006316095216e-04	-9.180450e-01	1.919209e-02
3.655117923238073e-04	-8.835922e-01	1.788273e-02
3.674649173238073e-04	-8.528560e-01	1.686134e-02
3.694180423238073e-04	-8.192578e-01	1.584625e-02
3.713711673238073e-04	-7.827977e-01	1.483744e-02
3.733242923238073e-04	-7.434756e-01	1.383493e-02
3.752774173238073e-04	-7.012916e-01	1.283871e-02
3.772305423238073e-04	-6.562456e-01	1.184879e-02
3.791836673238073e-04	-6.083376e-01	1.086515e-02
3.811367923238073e-04	-5.585238e-01	9.909900e-03
3.830899173238073e-04	-5.066079e-01	8.977294e-03
3.850430423238073e-04	-4.527853e-01	8.070768e-03
3.869961673238073e-04	-3.972584e-01	7.193661e-03
3.899258548238073e-04	-3.112315e-01	5.940189e-03
3.928555423238073e-04	-2.225700e-01	4.770509e-03
3.957852298238073e-04	-1.320243e-01	3.694277e-03
3.987149173238073e-04	-4.036110e-02	2.720357e-03
4.006680423238073e-04	2.098563e-02	2.131906e-03
4.035977298238073e-04	1.127855e-01	1.345826e-03
4.055508548238073e-04	1.735027e-01	8.889415e-04
4.075039798238073e-04	2.335669e-01	4.877438e-04
4.094571048238073e-04	2.927520e-01	1.436707e-04
4.114102298238073e-04	3.508353e-01	-1.420550e-04
4.133633548238073e-04	4.075981e-01	-3.684297e-04
4.153164798238073e-04	4.628268e-01	-5.346733e-04
4.172696048238073e-04	5.163134e-01	-6.402320e-04
4.192227298238073e-04	5.678568e-01	-6.847802e-04
4.211758548238073e-04	6.172630e-01	-6.682217e-04
4.231289798238073e-04	6.643459e-01	-5.906906e-04
4.250821048238073e-04	7.089283e-01	-4.525501e-04
4.270352298238073e-04	7.508425e-01	-2.543913e-04
4.289883548238073e-04	7.899308e-01	2.968402e-06
4.309414798238073e-04	8.260458e-01	3.184893e-04
4.328946048238073e-04	8.590518e-01	6.909128e-04
4.348477298238073e-04	8.888246e-01	1.118766e-03
4.377774173238073e-04	9.271796e-01	1.860744e-03
4.407071048238073e-04	9.576859e-01	2.717088e-03
4.436367923238073e-04	9.800853e-01	3.680311e-03
4.462874619666645e-04	9.931286e-01	4.656833e-03
4.489381316095216e-04	9.993222e-01	5.687632e-03
4.515888012523788e-04	9.986662e-01	6.772707e-03
4.542394708952359e-04	9.911605e-01	7.912059e-03
4.568901405380930e-04	9.768051e-01	9.105688e-03
4.595408101809502e-04	9.556000e-01	1.035359e-02
4.621914798238073e-04	9.275452e-01	1.165578e-02
4.651211673238074e-04	8.880796e-01	1.313112e-02
4.680508548238074e-04	8.422265e-01	1.459208e-02
4.709805423238074e-04	7.899861e-01	1.603864e-02
4.739102298238074e-04	7.313582e-01	1.747081e-02
4.768399173238074e-04	6.663429e-01	1.888859e-02
4.797696048238074e-04	5.949402e-01	2.029199e-02
4.826992923238074e-04	5.171500e-01	2.168099e-02
4.843733994666645e-04	4.711045e-01	2.243697e-02
4.860475066095217e-04	4.240892e-01	2.316725e-02
4.877216137523788e-04	3.761040e-01	2.387182e-02
4.893957208952360e-04	3.271490e-01	2.455068e-02
4.910698280380931e-04	2.772241e-01	2.520383e-02
4.927439351809503e-04	2.263295e-01	2.583127e-02
4.944180423238074e-04	1.744650e-01	2.643300e-02
4.951155869666645e-04	1.528207e-01	2.667265e-02
4.958131316095217e-04	1.311292e-01	2.690634e-02
4.965106762523788e-04	1.093904e-01	2.713405e-02
4.972082208952360e-04	8.760438e-02	2.735581e-02
4.979057655380931e-04	6.577104e-02	2.757159e-02
4.986033101809503e-04	4.389042e-02	2.778141e-02
4.993008548238074e-04	2.196253e-02	2.798526e-02
5.022305423238074e-04	-7.001722e-02	2.876997e-02
5.037651405380931e-04	-1.182828e-01	2.913578e-02
5.052997387523788e-04	-1.660000e-01	2.946639e-02
5.068343369666645e-04	-2.131690e-01	2.976181e-02
5.083689351809503e-04	-2.597896e-01	3.002203e-02
5.099035333952360e-04	-3.058619e-01	3.024706e-02
5.114381316095217e-04	-3.513858e-01	3.043690e-02
5.129727298238074e-04	-3.963615e-01	3.059154e-02
5.139492923238074e-04	-4.244006e-01	3.066986e-02
5.149258548238074e-04	-4.519767e-01	3.073297e-02
5.159024173238074e-04	-4.790898e-01	3.078089e-02
5.168789798238074e-04	-5.057398e-01	3.081360e-02
5.178555423238074e-04	-5.319268e-01	3.083112e-02
5.188321048238074e-04	-5.576508e-01	3.083343e-02
5.198086673238074e-04	-5.829117e-01	3.082055e-02
5.213432655380931e-04	-6.215931e-01	3.076857e-02
5.228778637523788e-04	-6.586263e-01	3.067967e-02
5.244124619666645e-04	-6.940111e-01	3.055386e-02
5.259470601809503e-04	-7.277476e-01	3.039114e-02
5.274816583952360e-04	-7.598358e-01	3.019150e-02
5.290162566095217e-04	-7.902757e-01	2.995495e-02
5.305508548238074e-04	-8.190674e-01	2.968149e-02
5.330620155380931e-04	-8.621743e-01	2.914859e-02
5.355731762523788e-04	-8.994458e-01	2.853513e-02
5.380843369666645e-04	-9.308820e-01	2.784109e-02
5.405954976809503e-04	-9.564828e-01	2.706647e-02
5.431066583952360e-04	-9.762482e-01	2.621129e-02
5.456178191095217e-04	-9.901783e-01	2.527553e-02
5.481289798238074e-04	-9.982730e-01	2.425920e-02
5.505006316095217e-04	-9.997038e-01	2.323908e-02
5.528722833952360e-04	-9.957312e-01	2.218439e-02
5.552439351809503e-04	-9.863553e-01	2.109513e-02
5.576155869666645e-04	-9.715759e-01	1.997130e-02
5.599872387523788e-04	-9.513932e-01	1.881291e-02
5.623588905380931e-04	-9.258072e-01	1.761994e-02
5.647305423238074e-04	-8.948177e-01	1.639241e-02
5.676602298238074e-04	-8.499992e-01	1.487924e-02
5.705899173238074e-04	-7.979854e-01	1.336006e-02
5.725430423238074e-04	-7.595271e-01	1.235019e-02
5.744961673238074e-04	-7.182101e-01	1.134700e-02
5.764492923238074e-04	-6.741899e-01	1.035421e-02
5.784024173238075e-04	-6.276323e-01	9.375490e-03
5.813321048238075e-04	-5.534237e-01	7.941690e-03
5.842617923238075e-04	-4.745303e-01	6.559595e-03
5.871914798238075e-04	-3.916200e-01	5.240684e-03
5.901211673238075e-04	-3.053945e-01	3.995905e-03
5.930508548238075e-04	-2.165838e-01	2.835579e-03
5.959805423238075e-04	-1.259397e-01	1.769310e-03
5.989102298238075e-04	-3.422945e-02	8.059096e-04
5.998867923238075e-04	-3.556516e-03	5.090340e-04
6.018399173238075e-04	5.777052e-02	-4.668437e-05
6.037930423238075e-04	1.188801e-01	-5.500228e-04
6.057461673238075e-04	1.795423e-01	-9.991507e-04
6.076992923238075e-04	2.395287e-01	-1.392441e-03
6.096524173238075e-04	2.986136e-01	-1.728478e-03
6.116055423238075e-04	3.565746e-01	-2.006060e-03
6.145352298238075e-04	4.409328e-01	-2.310744e-03
6.174649173238075e-04	5.215585e-01	-2.479383e-03
6.203946048238075e-04	5.977691e-01	-2.510764e-03
6.223477298238075e-04	6.458031e-01	-2.455356e-03
6.243008548238075e-04	6.914064e-01	-2.339168e-03
6.262539798238075e-04	7.344074e-01	-2.162702e-03
6.282071048238075e-04	7.746443e-01	-1.926683e-03
6.301602298238075e-04	8.119655e-01	-1.632063e-03
6.321133548238075e-04	8.462307e-01	-1.280015e-03
6.340664798238075e-04	8.773109e-01	-8.719241e-04
6.360196048238075e-04	9.050891e-01	-4.093907e-04
6.379727298238075e-04	9.294608e-01	1.057822e-04
6.399258548238075e-04	9.503341e-01	6.715932e-04
6.428555423238075e-04	9.749167e-01	1.610411e-03
6.457852298238075e-04	9.912465e-01	2.650033e-03
6.487149173238075e-04	9.991851e-01	3.781448e-03
6.512260780380932e-04	9.990154e-01	4.835158e-03
6.537372387523789e-04	9.928379e-01	5.924517e-03
6.562483994666646e-04	9.806527e-01	7.049527e-03
6.587595601809504e-04	9.624598e-01	8.210186e-03
6.612707208952361e-04	9.382591e-01	9.406495e-03
6.637818816095218e-04	9.080507e-01	1.063845e-02
6.662930423238075e-04	8.718345e-01	1.190606e-02
6.689437119666646e-04	8.270784e-01	1.325665e-02
6.715943816095218e-04	7.775463e-01	1.458461e-02
6.742450512523789e-04	7.232384e-01	1.588994e-02
6.768957208952361e-04	6.641545e-01	1.717263e-02
6.795463905380932e-04	6.002948e-01	1.843270e-02
6.821970601809504e-04	5.316591e-01	1.967014e-02
6.848477298238075e-04	4.582476e-01	2.088495e-02
6.863823280380932e-04	4.146162e-01	2.155488e-02
6.879169262523789e-04	3.702836e-01	2.220162e-02
6.894515244666646e-04	3.252500e-01	2.282516e-02
6.909861226809505e-04	2.795152e-01	2.342552e-02
6.925207208952362e-04	2.330792e-01	2.400268e-02
6.940553191095219e-04	1.859422e-01	2.455665e-02
6.955899173238076e-04	1.381040e-01	2.508743e-02
6.985196048238076e-04	4.649122e-02	2.601555e-02
6.992171494666647e-04	2.456520e-02	2.622087e-02
6.999146941095219e-04	2.653672e-03	2.641964e-02
7.006122387523790e-04	-1.924337e-02	2.661184e-02
7.013097833952362e-04	-4.112593e-02	2.679748e-02
7.020073280380933e-04	-6.299399e-02	2.697657e-02
7.027048726809505e-04	-8.484757e-02	2.714909e-02
7.034024173238076e-04	-1.066867e-01	2.731504e-02
7.050765244666647e-04	-1.591585e-01	2.768656e-02
7.067506316095219e-04	-2.108393e-01	2.801544e-02
7.084247387523790e-04	-2.617292e-01	2.830169e-02
7.100988458952362e-04	-3.118281e-01	2.854532e-02
7.117729530380933e-04	-3.611360e-01	2.874631e-02
7.134470601809505e-04	-4.096529e-01	2.890468e-02
7.151211673238076e-04	-4.573789e-01	2.902041e-02
7.162372387523790e-04	-4.883613e-01	2.907178e-02
7.173533101809505e-04	-5.186529e-01	2.910323e-02
7.184693816095219e-04	-5.482536e-01	2.911476e-02
7.195854530380933e-04	-5.771633e-01	2.910638e-02
7.207015244666647e-04	-6.053822e-01	2.907808e-02
7.218175958952362e-04	-6.329102e-01	2.902986e-02
7.229336673238076e-04	-6.597472e-01	2.896172e-02
7.248867923238076e-04	-7.049419e-01	2.879211e-02
7.268399173238076e-04	-7.471200e-01	2.856510e-02
7.287930423238076e-04	-7.862817e-01	2.828068e-02
7.307461673238076e-04	-8.224267e-01	2.793885e-02
7.326992923238076e-04	-8.555552e-01	2.753961e-02
7.346524173238076e-04	-8.856672e-01	2.708297e-02
7.366055423238076e-04	-9.127627e-01	2.656892e-02
7.392562119666647e-04	-9.438152e-01	2.577619e-02
7.419068816095219e-04	-9.680467e-01	2.490919e-02
7.445575512523790e-04	-9.854571e-01	2.396793e-02
7.472082208952362e-04	-9.960465e-01	2.295241e-02
7.498588905380933e-04	-9.998148e-01	2.186263e-02
7.525095601809505e-04	-9.967621e-01	2.069859e-02
7.551602298238076e-04	-9.868883e-01	1.946029e-02
7.572528637523790e-04	-9.739020e-01	1.845169e-02
7.593454976809505e-04	-9.569419e-01	1.742878e-02
7.614381316095219e-04	-9.360080e-01	1.639158e-02
7.635307655380933e-04	-9.111005e-01	1.534008e-02
7.656233994666647e-04	-8.822192e-01	1.427429e-02
7.677160333952362e-04	-8.493642e-01	1.319419e-02
7.698086673238076e-04	-8.125355e-01	1.209980e-02
7.717617923238076e-04	-7.752618e-01	1.109033e-02
7.746914798238076e-04	-7.139270e-01	9.587024e-03
7.776211673238076e-04	-6.465488e-01	8.107933e-03
7.805508548238076e-04	-5.736974e-01	6.665381e-03
7.834805423238076e-04	-4.959896e-01	5.271387e-03
7.864102298238076e-04	-4.140831e-01	3.937559e-03
7.893399173238076e-04	-3.286713e-01	2.674996e-03
7.922696048238076e-04	-2.404773e-01	1.494194e-03
7.951992923238076e-04	-1.502476e-01	4.049577e-04
7.971524173238076e-04	-8.934017e-02	-2.658369e-04
7.991055423238076e-04	-2.809652e-02	-8.894370e-04
