time	V(n001)	V(n003)
0.000000000000000e+00	0.000000e+00	0.000000e+00
1.440218791449757e-06	4.524751e-03	-4.351169e-07
2.880437582899514e-06	9.049194e-03	-1.090269e-08
4.320656374349272e-06	1.357333e-02	1.272643e-06
5.760875165799029e-06	1.809715e-02	3.415519e-06
7.201093957248786e-06	2.262067e-02	6.417727e-06
8.641312748698544e-06	2.714387e-02	1.027927e-05
1.008153154014830e-05	3.166677e-02	1.500014e-05
1.348931812819817e-05	4.236526e-02	3.467924e-05
1.827919204316216e-05	5.739422e-02	8.216450e-05
2.490672997056506e-05	7.816698e-02	1.949071e-04
3.454147765304232e-05	1.083024e-01	4.585146e-04
4.430710265304232e-05	1.387458e-01	8.571926e-04
5.407272765304232e-05	1.690586e-01	1.410578e-03
6.383835265304231e-05	1.992124e-01	2.127793e-03
7.360397765304231e-05	2.291786e-01	3.013708e-03
8.336960265304230e-05	2.589291e-01	4.070678e-03
9.313522765304230e-05	2.884359e-01	5.299379e-03
1.029008526530423e-04	3.176713e-01	6.699346e-03
1.126664776530423e-04	3.466077e-01	8.269324e-03
1.224321026530423e-04	3.752179e-01	1.000750e-02
1.321977276530423e-04	4.034749e-01	1.191163e-02
1.419633526530423e-04	4.313522e-01	1.397916e-02
1.517289776530423e-04	4.588235e-01	1.620728e-02
1.614946026530423e-04	4.858630e-01	1.859297e-02
1.712602276530423e-04	5.124452e-01	2.113300e-02
1.810258526530424e-04	5.385451e-01	2.382398e-02
2.005571026530424e-04	5.892003e-01	2.964453e-02
2.200883526530424e-04	6.376379e-01	3.602460e-02
2.396196026530424e-04	6.836755e-01	4.293209e-02
2.689164776530424e-04	7.478556e-01	5.420727e-02
2.982133526530424e-04	8.057051e-01	6.646995e-02
3.205347812244711e-04	8.455771e-01	7.655686e-02
3.428562097958996e-04	8.809242e-01	8.692144e-02
3.651776383673282e-04	9.117463e-01	9.756368e-02
3.874990669387568e-04	9.380434e-01	1.084836e-01
4.098204955101854e-04	9.598155e-01	1.196812e-01
4.321419240816140e-04	9.770626e-01	1.311564e-01
4.544633526530426e-04	9.897847e-01	1.429093e-01
4.837602276530426e-04	9.984334e-01	1.585443e-01
5.130571026530427e-04	9.988284e-01	1.737349e-01
5.423539776530427e-04	9.909699e-01	1.884811e-01
5.716508526530427e-04	9.748577e-01	2.027829e-01
6.009477276530428e-04	9.504920e-01	2.166403e-01
6.302446026530428e-04	9.178727e-01	2.300533e-01
6.595414776530427e-04	8.769997e-01	2.430220e-01
6.818629062244713e-04	8.406146e-01	2.521291e-01
7.041843347958999e-04	8.006408e-01	2.605303e-01
7.265057633673285e-04	7.570785e-01	2.682255e-01
7.488271919387571e-04	7.099275e-01	2.752148e-01
7.711486205101857e-04	6.591879e-01	2.814980e-01
7.934700490816143e-04	6.048597e-01	2.870753e-01
8.157914776530428e-04	5.469429e-01	2.919467e-01
8.450883526530429e-04	4.676845e-01	2.969260e-01
8.743852276530429e-04	3.844671e-01	3.004001e-01
8.939164776530429e-04	3.271360e-01	3.018557e-01
9.036821026530429e-04	2.979951e-01	3.023211e-01
9.232133526530429e-04	2.388995e-01	3.027216e-01
9.329789776530429e-04	2.089291e-01	3.026554e-01
9.427446026530429e-04	1.788333e-01	3.024098e-01
9.525102276530430e-04	1.486120e-01	3.019850e-01
9.622758526530430e-04	1.182652e-01	3.013809e-01
9.720414776530429e-04	8.779292e-02	3.005975e-01
9.818071026530429e-04	5.719518e-02	2.996348e-01
9.915727276530429e-04	2.647197e-02	2.984928e-01
1.020869602653043e-03	-6.551683e-02	2.939977e-01
1.036215584795900e-03	-1.138026e-01	2.909905e-01
1.051561566938757e-03	-1.615503e-01	2.875697e-01
1.066907549081614e-03	-2.087597e-01	2.837350e-01
1.082253531224472e-03	-2.554311e-01	2.794867e-01
1.097599513367329e-03	-3.015643e-01	2.748245e-01
1.112945495510186e-03	-3.471593e-01	2.697487e-01
1.128291477653043e-03	-3.922162e-01	2.642591e-01
1.154798174081614e-03	-4.685060e-01	2.537215e-01
1.181304870510186e-03	-5.403936e-01	2.422943e-01
1.207811566938757e-03	-6.078789e-01	2.299773e-01
1.234318263367329e-03	-6.709621e-01	2.167707e-01
1.260824959795900e-03	-7.296430e-01	2.026744e-01
1.287331656224472e-03	-7.839217e-01	1.876885e-01
1.313838352653043e-03	-8.337982e-01	1.718128e-01
1.336159781224472e-03	-8.707422e-01	1.580091e-01
1.358481209795900e-03	-9.030759e-01	1.440190e-01
1.380802638367329e-03	-9.307992e-01	1.298427e-01
1.403124066938758e-03	-9.539120e-01	1.154801e-01
1.425445495510186e-03	-9.724144e-01	1.009313e-01
1.447766924081615e-03	-9.863065e-01	8.619609e-02
1.470088352653043e-03	-9.955881e-01	7.127464e-02
1.481249066938758e-03	-9.982641e-01	6.388810e-02
1.492409781224472e-03	-9.997129e-01	5.654205e-02
1.503570495510186e-03	-9.999347e-01	4.923650e-02
1.514731209795901e-03	-9.989294e-01	4.197145e-02
1.525891924081615e-03	-9.966970e-01	3.474689e-02
1.537052638367329e-03	-9.932375e-01	2.756283e-02
1.548213352653043e-03	-9.885508e-01	2.041926e-02
1.557978977653043e-03	-9.834571e-01	1.424314e-02
1.567744602653043e-03	-9.774379e-01	8.125349e-03
1.577510227653043e-03	-9.704987e-01	2.071203e-03
1.587275852653043e-03	-9.626461e-01	-3.914032e-03
1.597041477653043e-03	-9.538875e-01	-9.825156e-03
1.616572727653043e-03	-9.336861e-01	-2.140461e-02
1.636103977653043e-03	-9.099706e-01	-3.262697e-02
1.655635227653043e-03	-8.828301e-01	-4.345337e-02
1.684932102653043e-03	-8.359244e-01	-5.886908e-02
1.714228977653044e-03	-7.819426e-01	-7.319058e-02
1.743525852653044e-03	-7.213415e-01	-8.630745e-02
1.772822727653044e-03	-6.546341e-01	-9.811930e-02
1.802119602653044e-03	-5.823851e-01	-1.085366e-01
1.831416477653044e-03	-5.052061e-01	-1.174813e-01
1.860713352653044e-03	-4.237505e-01	-1.248880e-01
1.890010227653044e-03	-3.387077e-01	-1.307036e-01
1.919307102653044e-03	-2.507977e-01	-1.348888e-01
1.948603977653044e-03	-1.607647e-01	-1.374175e-01
1.958369602653044e-03	-1.304132e-01	-1.378899e-01
1.977900852653043e-03	-6.937076e-02	-1.382778e-01
2.007197727653042e-03	2.261040e-02	-1.374716e-01
2.036494602653042e-03	1.144002e-01	-1.350146e-01
2.065791477653041e-03	2.052215e-01	-1.309366e-01
2.095088352653041e-03	2.943056e-01	-1.252808e-01
2.124385227653040e-03	3.808984e-01	-1.181035e-01
2.153682102653039e-03	4.642668e-01	-1.094740e-01
2.182978977653039e-03	5.437050e-01	-9.947337e-02
2.212275852653038e-03	6.185408e-01	-8.819452e-02
2.241572727653037e-03	6.881405e-01	-7.574078e-02
2.270869602653037e-03	7.519149e-01	-6.222539e-02
2.300166477653036e-03	8.093243e-01	-4.777038e-02
2.329463352653036e-03	8.598826e-01	-3.250563e-02
2.348994602653035e-03	8.895682e-01	-2.194649e-02
2.358760227653035e-03	9.031618e-01	-1.656774e-02
2.368525852653035e-03	9.159055e-01	-1.112995e-02
2.378291477653035e-03	9.277872e-01	-5.638503e-03
2.388057102653034e-03	9.387957e-01	-9.883870e-05
2.407588352653034e-03	9.581524e-01	1.110321e-02
2.422934334795891e-03	9.708745e-01	2.005054e-02
2.438280316938748e-03	9.812956e-01	2.899988e-02
2.453626299081605e-03	9.894159e-01	3.795121e-02
2.468972281224461e-03	9.952354e-01	4.690455e-02
2.484318263367318e-03	9.987539e-01	5.585990e-02
2.499664245510175e-03	9.999716e-01	6.481725e-02
2.515010227653032e-03	9.988884e-01	7.377660e-02
2.540121834795888e-03	9.917201e-01	8.839660e-02
2.565233441938745e-03	9.786933e-01	1.025033e-01
2.590345049081602e-03	9.598079e-01	1.160967e-01
2.615456656224458e-03	9.350639e-01	1.291768e-01
2.640568263367315e-03	9.044613e-01	1.417435e-01
2.665679870510172e-03	8.680001e-01	1.537970e-01
2.690791477653028e-03	8.256804e-01	1.653371e-01
2.713112906224456e-03	7.834996e-01	1.748411e-01
2.735434334795884e-03	7.380730e-01	1.835654e-01
2.757755763367312e-03	6.894005e-01	1.915099e-01
2.780077191938740e-03	6.374822e-01	1.986746e-01
2.802398620510169e-03	5.823180e-01	2.050596e-01
2.824720049081597e-03	5.239080e-01	2.106648e-01
2.847041477653025e-03	4.622522e-01	2.154902e-01
2.856807102653024e-03	4.347670e-01	2.172862e-01
2.866572727653024e-03	4.069391e-01	2.189058e-01
2.876338352653024e-03	3.787685e-01	2.203489e-01
2.886103977653024e-03	3.502550e-01	2.216154e-01
2.895869602653024e-03	3.213988e-01	2.227055e-01
2.905635227653023e-03	2.921999e-01	2.236190e-01
2.915400852653023e-03	2.626581e-01	2.243561e-01
2.925166477653023e-03	2.329368e-01	2.249094e-01
2.954463352653022e-03	1.425701e-01	2.254800e-01
2.961438799081594e-03	1.208213e-01	2.253741e-01
2.968414245510165e-03	9.904057e-02	2.251753e-01
2.975389691938736e-03	7.722805e-02	2.248837e-01
2.982365138367307e-03	5.538370e-02	2.244992e-01
2.989340584795879e-03	3.350753e-02	2.240220e-01
2.996316031224450e-03	1.159953e-02	2.234519e-01
3.003291477653021e-03	-1.034030e-02	2.227889e-01
3.014452191938735e-03	-4.549421e-02	2.215322e-01
3.025612906224449e-03	-8.048527e-02	2.200455e-01
3.036773620510163e-03	-1.153135e-01	2.183289e-01
3.047934334795878e-03	-1.499788e-01	2.163824e-01
3.059095049081592e-03	-1.844813e-01	2.142060e-01
3.070255763367306e-03	-2.188209e-01	2.117996e-01
3.081416477653020e-03	-2.529976e-01	2.091633e-01
3.103737906224448e-03	-3.209293e-01	2.031485e-01
3.126059334795876e-03	-3.865118e-01	1.963670e-01
3.148380763367304e-03	-4.497449e-01	1.888189e-01
3.170702191938732e-03	-5.106288e-01	1.805042e-01
3.193023620510160e-03	-5.691634e-01	1.714228e-01
3.215345049081588e-03	-6.253487e-01	1.615747e-01
3.237666477653016e-03	-6.791847e-01	1.509601e-01
3.259987906224444e-03	-7.294347e-01	1.396885e-01
3.282309334795873e-03	-7.755915e-01	1.280045e-01
3.304630763367301e-03	-8.176551e-01	1.159081e-01
3.326952191938729e-03	-8.556254e-01	1.033993e-01
3.349273620510157e-03	-8.895026e-01	9.047800e-02
3.371595049081585e-03	-9.192865e-01	7.714431e-02
3.393916477653013e-03	-9.449773e-01	6.339819e-02
3.405077191938727e-03	-9.558885e-01	5.650407e-02
3.416237906224441e-03	-9.655991e-01	4.959077e-02
3.427398620510155e-03	-9.741093e-01	4.265828e-02
3.438559334795869e-03	-9.814190e-01	3.570661e-02
3.449720049081583e-03	-9.875282e-01	2.873575e-02
3.460880763367297e-03	-9.924369e-01	2.174571e-02
3.472041477653011e-03	-9.961451e-01	1.473648e-02
3.491572727653011e-03	-9.996496e-01	2.536376e-03
3.511103977653010e-03	-9.993916e-01	-9.587808e-03
3.540400852653010e-03	-9.919561e-01	-2.753430e-02
3.569697727653009e-03	-9.761235e-01	-4.506128e-02
3.592019156224437e-03	-9.581445e-01	-5.818565e-02
3.614340584795866e-03	-9.357941e-01	-7.077583e-02
3.636662013367294e-03	-9.090721e-01	-8.283181e-02
3.658983441938721e-03	-8.779786e-01	-9.435360e-02
3.681304870510150e-03	-8.425135e-01	-1.053412e-01
3.703626299081578e-03	-8.026770e-01	-1.157946e-01
3.725947727653006e-03	-7.584689e-01	-1.257138e-01
3.746874066938720e-03	-7.134577e-01	-1.343080e-01
3.767800406224433e-03	-6.659099e-01	-1.421654e-01
3.788726745510147e-03	-6.158257e-01	-1.492863e-01
3.809653084795861e-03	-5.632050e-01	-1.556704e-01
3.830579424081575e-03	-5.080479e-01	-1.613179e-01
3.851505763367289e-03	-4.503542e-01	-1.662288e-01
3.872432102653003e-03	-3.901241e-01	-1.704030e-01
3.882197727653003e-03	-3.616276e-01	-1.720465e-01
3.891963352653002e-03	-3.328591e-01	-1.735087e-01
3.901728977653002e-03	-3.038188e-01	-1.747896e-01
3.911494602653002e-03	-2.745065e-01	-1.758891e-01
3.921260227653002e-03	-2.449223e-01	-1.768073e-01
3.931025852653001e-03	-2.150663e-01	-1.775441e-01
3.940791477653001e-03	-1.849383e-01	-1.780996e-01
3.970088352653001e-03	-9.383197e-02	-1.786564e-01
3.999385227653000e-03	-1.931363e-03	-1.775583e-01
4.009150852653000e-03	2.881612e-02	-1.768231e-01
4.018916477653000e-03	5.946465e-02	-1.759090e-01
4.028682102652999e-03	9.001422e-02	-1.748159e-01
4.038447727652999e-03	1.204648e-01	-1.735438e-01
4.048213352652999e-03	1.508165e-01	-1.720926e-01
4.057978977652999e-03	1.810692e-01	-1.704625e-01
4.067744602652999e-03	2.112229e-01	-1.686534e-01
4.088670941938713e-03	2.756273e-01	-1.641311e-01
4.109597281224426e-03	3.381887e-01	-1.588998e-01
4.130523620510140e-03	3.989071e-01	-1.529597e-01
4.151449959795854e-03	4.577825e-01	-1.463107e-01
4.172376299081568e-03	5.148148e-01	-1.389527e-01
4.193302638367281e-03	5.700041e-01	-1.308859e-01
4.214228977652995e-03	6.233504e-01	-1.221102e-01
4.235155316938710e-03	6.738278e-01	-1.127061e-01
4.256081656224423e-03	7.209284e-01	-1.028674e-01
4.277007995510137e-03	7.646522e-01	-9.259393e-02
4.297934334795851e-03	8.049991e-01	-8.188573e-02
4.318860674081565e-03	8.419692e-01	-7.074281e-02
4.339787013367278e-03	8.755625e-01	-5.916516e-02
4.360713352652992e-03	9.057790e-01	-4.715279e-02
4.390010227652992e-03	9.408916e-01	-3.007795e-02
4.419307102652991e-03	9.680395e-01	-1.263898e-02
4.438838352652991e-03	9.815969e-01	-8.845015e-04
4.449999066938705e-03	9.876970e-01	5.878901e-03
4.461159781224419e-03	9.925725e-01	1.262943e-02
4.472320495510133e-03	9.962234e-01	1.936708e-02
4.483481209795847e-03	9.986496e-01	2.609186e-02
4.494641924081561e-03	9.998512e-01	3.280377e-02
4.505802638367275e-03	9.998281e-01	3.950280e-02
4.516963352652989e-03	9.985803e-01	4.618896e-02
4.539284781224417e-03	9.921672e-01	5.953958e-02
4.561606209795845e-03	9.810812e-01	7.249988e-02
4.583927638367273e-03	9.653225e-01	8.506987e-02
4.606249066938702e-03	9.448909e-01	9.724953e-02
4.628570495510130e-03	9.197866e-01	1.090389e-01
4.650891924081558e-03	8.900094e-01	1.204379e-01
4.673213352652986e-03	8.555595e-01	1.314466e-01
4.696929870510128e-03	8.139310e-01	1.424581e-01
4.720646388367270e-03	7.684794e-01	1.526095e-01
4.744362906224413e-03	7.192047e-01	1.619008e-01
4.768079424081555e-03	6.661069e-01	1.703320e-01
4.791795941938698e-03	6.091860e-01	1.779031e-01
4.815512459795840e-03	5.484420e-01	1.846141e-01
4.839228977652982e-03	4.838749e-01	1.904651e-01
4.851784781224410e-03	4.488454e-01	1.931056e-01
4.864340584795838e-03	4.132587e-01	1.954527e-01
4.876896388367267e-03	3.771146e-01	1.975064e-01
4.889452191938696e-03	3.404132e-01	1.992667e-01
4.902007995510124e-03	3.031546e-01	2.007336e-01
4.914563799081552e-03	2.653386e-01	2.019070e-01
4.927119602652980e-03	2.269653e-01	2.027870e-01
4.956416477652980e-03	1.364942e-01	2.036523e-01
4.964787013367265e-03	1.103540e-01	2.035964e-01
4.973157549081551e-03	8.418275e-02	2.034065e-01
4.981528084795836e-03	5.798049e-02	2.030826e-01
4.989898620510122e-03	3.174724e-02	2.026247e-01
4.998269156224407e-03	5.482977e-03	2.020327e-01
5.006639691938693e-03	-2.081228e-02	2.013067e-01
5.015010227652978e-03	-4.713855e-02	2.004467e-01
5.028961120510121e-03	-9.106528e-02	1.987081e-01
5.042912013367263e-03	-1.346102e-01	1.966162e-01
5.056862906224406e-03	-1.777733e-01	1.941710e-01
5.070813799081549e-03	-2.205546e-01	1.913726e-01
5.084764691938692e-03	-2.629541e-01	1.882208e-01
5.098715584795833e-03	-3.049718e-01	1.847158e-01
5.112666477652976e-03	-3.466077e-01	1.808574e-01
5.137778084795833e-03	-4.204646e-01	1.729502e-01
5.162889691938690e-03	-4.906811e-01	1.641683e-01
5.188001299081546e-03	-5.572571e-01	1.545117e-01
5.213112906224403e-03	-6.201927e-01	1.439804e-01
5.238224513367260e-03	-6.794878e-01	1.325743e-01
5.263336120510116e-03	-7.351425e-01	1.202935e-01
5.288447727652973e-03	-7.871567e-01	1.071380e-01
5.305188799081544e-03	-8.186659e-01	9.806492e-02
5.321929870510115e-03	-8.477302e-01	8.880581e-02
5.338670941938686e-03	-8.743496e-01	7.936070e-02
5.355412013367256e-03	-8.985241e-01	6.972958e-02
5.372153084795828e-03	-9.202536e-01	5.991244e-02
5.388894156224399e-03	-9.395382e-01	4.990930e-02
5.405635227652970e-03	-9.563779e-01	3.972015e-02
5.415400852652970e-03	-9.649035e-01	3.375770e-02
5.425166477652970e-03	-9.725056e-01	2.778387e-02
5.434932102652969e-03	-9.791843e-01	2.179867e-02
5.444697727652969e-03	-9.849396e-01	1.580209e-02
5.454463352652969e-03	-9.897713e-01	9.794138e-03
5.464228977652969e-03	-9.936797e-01	3.774810e-03
5.473994602652969e-03	-9.966645e-01	-2.255893e-03
5.486550406224397e-03	-9.991015e-01	-1.000808e-02
5.499106209795825e-03	-9.999879e-01	-1.770509e-02
5.511662013367253e-03	-9.993237e-01	-2.534691e-02
5.524217816938682e-03	-9.971088e-01	-3.293355e-02
5.536773620510110e-03	-9.933432e-01	-4.046501e-02
5.549329424081539e-03	-9.880270e-01	-4.794128e-02
5.561885227652967e-03	-9.811602e-01	-5.536237e-02
5.585601745510109e-03	-9.636356e-01	-6.922554e-02
5.609318263367251e-03	-9.411571e-01	-8.249745e-02
5.633034781224394e-03	-9.137247e-01	-9.517813e-02
5.656751299081536e-03	-8.813383e-01	-1.072676e-01
5.680467816938679e-03	-8.439981e-01	-1.187657e-01
5.704184334795821e-03	-8.017039e-01	-1.296727e-01
5.727900852652963e-03	-7.544559e-01	-1.399884e-01
5.748827191938677e-03	-7.091457e-01	-1.483462e-01
5.769753531224391e-03	-6.613204e-01	-1.559672e-01
5.790679870510105e-03	-6.109800e-01	-1.628512e-01
5.811606209795818e-03	-5.581244e-01	-1.689983e-01
5.832532549081532e-03	-5.027538e-01	-1.744085e-01
5.853458888367246e-03	-4.448680e-01	-1.790818e-01
5.874385227652960e-03	-3.844671e-01	-1.830182e-01
5.882755763367245e-03	-3.600181e-01	-1.843426e-01
5.891126299081531e-03	-3.353633e-01	-1.855344e-01
5.899496834795816e-03	-3.105025e-01	-1.865934e-01
5.907867370510102e-03	-2.854359e-01	-1.875197e-01
5.916237906224388e-03	-2.601633e-01	-1.883132e-01
5.924608441938674e-03	-2.346849e-01	-1.889741e-01
5.932978977652959e-03	-2.090005e-01	-1.895022e-01
5.962275852652958e-03	-1.182367e-01	-1.902854e-01
6.001338352652957e-03	4.204547e-03	-1.887612e-01
6.011103977652957e-03	3.494889e-02	-1.879205e-01
6.020869602652957e-03	6.558854e-02	-1.869014e-01
6.030635227652957e-03	9.612350e-02	-1.857040e-01
6.040400852652957e-03	1.265538e-01	-1.843283e-01
6.050166477652956e-03	1.568793e-01	-1.827742e-01
6.059932102652956e-03	1.871002e-01	-1.810419e-01
6.069697727652956e-03	2.172164e-01	-1.791312e-01
6.090624066938670e-03	2.815198e-01	-1.743934e-01
6.111550406224383e-03	3.439563e-01	-1.689512e-01
6.132476745510098e-03	4.045260e-01	-1.628047e-01
6.153403084795811e-03	4.632289e-01	-1.559539e-01
6.174329424081525e-03	5.200650e-01	-1.483988e-01
6.195255763367239e-03	5.750342e-01	-1.401393e-01
6.216182102652953e-03	6.281366e-01	-1.311755e-01
6.237108441938667e-03	6.783481e-01	-1.215891e-01
6.258034781224380e-03	7.251665e-01	-1.115740e-01
6.278961120510095e-03	7.685918e-01	-1.011302e-01
6.299887459795808e-03	8.086240e-01	-9.025773e-02
6.320813799081522e-03	8.452631e-01	-7.895657e-02
6.341740138367235e-03	8.785091e-01	-6.722673e-02
6.362666477652950e-03	9.083620e-01	-5.506820e-02
6.372432102652949e-03	9.207862e-01	-4.934660e-02
6.382197727652949e-03	9.323191e-01	-4.358873e-02
6.391963352652949e-03	9.429608e-01	-3.779461e-02
6.401728977652949e-03	9.527112e-01	-3.196423e-02
6.411494602652949e-03	9.615703e-01	-2.609758e-02
6.421260227652948e-03	9.695381e-01	-2.019468e-02
6.431025852652948e-03	9.766147e-01	-1.425551e-02
6.440791477652948e-03	9.827590e-01	-8.299305e-03
6.450557102652948e-03	9.879687e-01	-2.345965e-03
6.460322727652948e-03	9.922438e-01	3.604506e-03
6.470088352652947e-03	9.955843e-01	9.552108e-03
6.479853977652947e-03	9.979901e-01	1.549684e-02
6.489619602652947e-03	9.994614e-01	2.143871e-02
6.499385227652947e-03	9.999982e-01	2.737770e-02
6.518916477652946e-03	9.981287e-01	3.926132e-02
6.538447727652946e-03	9.925953e-01	5.090277e-02
6.557978977652945e-03	9.833981e-01	6.230207e-02
6.577510227652945e-03	9.705371e-01	7.345920e-02
6.597041477652945e-03	9.540121e-01	8.437416e-02
6.616572727652944e-03	9.338233e-01	9.504697e-02
6.636103977652944e-03	9.099706e-01	1.054776e-01
6.661215584795800e-03	8.737040e-01	1.183495e-01
6.686327191938657e-03	8.327265e-01	1.303338e-01
6.711438799081514e-03	7.870380e-01	1.414306e-01
6.736550406224370e-03	7.366387e-01	1.516398e-01
6.761662013367227e-03	6.815284e-01	1.609614e-01
6.786773620510084e-03	6.217072e-01	1.693955e-01
6.811885227652940e-03	5.571750e-01	1.769420e-01
6.825836120510083e-03	5.200685e-01	1.805968e-01
6.839787013367225e-03	4.821499e-01	1.838962e-01
6.853737906224368e-03	4.434190e-01	1.868401e-01
6.867688799081510e-03	4.038760e-01	1.894287e-01
6.881639691938653e-03	3.635209e-01	1.916620e-01
6.895590584795795e-03	3.223536e-01	1.935398e-01
6.909541477652938e-03	2.803741e-01	1.950622e-01
6.938838352652937e-03	1.909648e-01	1.970291e-01
6.947208888367223e-03	1.650438e-01	1.972891e-01
6.955579424081509e-03	1.390536e-01	1.974146e-01
