time,V(n001),V(n003)
0.00E+00,0.00E+00,0.00E+00
3.92E-07,2.47E-02,-2.13E-07
7.84E-07,4.93E-02,-4.35E-08
1.18E-06,7.38E-02,5.09E-07
1.57E-06,9.83E-02,1.44E-06
1.96E-06,1.23E-01,2.76E-06
2.35E-06,1.47E-01,4.46E-06
2.74E-06,1.72E-01,6.55E-06
3.63E-06,2.26E-01,1.47E-05
4.61E-06,2.85E-01,2.87E-05
5.58E-06,3.44E-01,4.94E-05
6.56E-06,4.01E-01,7.81E-05
7.54E-06,4.56E-01,1.16E-04
8.51E-06,5.10E-01,1.64E-04
9.49E-06,5.62E-01,2.23E-04
1.05E-05,6.11E-01,2.93E-04
1.14E-05,6.59E-01,3.77E-04
1.34E-05,7.46E-01,5.85E-04
1.53E-05,8.22E-01,8.50E-04
1.73E-05,8.85E-01,1.18E-03
1.93E-05,9.36E-01,1.56E-03
2.12E-05,9.72E-01,2.01E-03
2.32E-05,9.93E-01,2.52E-03
2.51E-05,1.00E+00,3.09E-03
2.71E-05,9.92E-01,3.71E-03
2.90E-05,9.68E-01,4.37E-03
3.10E-05,9.30E-01,5.08E-03
3.29E-05,8.78E-01,5.83E-03
3.49E-05,8.13E-01,6.59E-03
3.68E-05,7.36E-01,7.38E-03
3.88E-05,6.48E-01,8.17E-03
4.07E-05,5.50E-01,8.96E-03
4.27E-05,4.43E-01,9.74E-03
4.46E-05,3.30E-01,1.05E-02
4.66E-05,2.12E-01,1.12E-02
4.86E-05,9.08E-02,1.19E-02
4.95E-05,2.96E-02,1.22E-02
5.15E-05,-9.30E-02,1.28E-02
5.34E-05,-2.14E-01,1.34E-02
5.54E-05,-3.32E-01,1.39E-02
5.73E-05,-4.45E-01,1.43E-02
5.93E-05,-5.51E-01,1.46E-02
6.12E-05,-6.49E-01,1.48E-02
6.32E-05,-7.38E-01,1.50E-02
6.52E-05,-8.15E-01,1.50E-02
6.71E-05,-8.80E-01,1.50E-02
6.91E-05,-9.31E-01,1.49E-02
7.10E-05,-9.69E-01,1.47E-02
7.30E-05,-9.92E-01,1.44E-02
7.49E-05,-1.00E+00,1.41E-02
7.69E-05,-9.93E-01,1.36E-02
7.88E-05,-9.71E-01,1.31E-02
8.08E-05,-9.35E-01,1.26E-02
8.27E-05,-8.84E-01,1.20E-02
8.47E-05,-8.20E-01,1.13E-02
8.66E-05,-7.44E-01,1.07E-02
8.86E-05,-6.57E-01,9.97E-03
8.96E-05,-6.09E-01,9.62E-03
9.05E-05,-5.60E-01,9.26E-03
9.15E-05,-5.08E-01,8.91E-03
9.25E-05,-4.54E-01,8.56E-03
9.35E-05,-3.99E-01,8.22E-03
9.45E-05,-3.42E-01,7.88E-03
9.54E-05,-2.83E-01,7.54E-03
9.64E-05,-2.24E-01,7.21E-03
9.74E-05,-1.64E-01,6.89E-03
9.84E-05,-1.03E-01,6.58E-03
9.93E-05,-4.18E-02,6.28E-03
1.00E-04,1.95E-02,5.99E-03
1.01E-04,8.08E-02,5.71E-03
1.02E-04,1.42E-01,5.45E-03
1.03E-04,2.02E-01,5.20E-03
1.04E-04,2.62E-01,4.97E-03
1.05E-04,3.21E-01,4.75E-03
1.06E-04,3.78E-01,4.55E-03
1.07E-04,4.34E-01,4.37E-03
1.08E-04,4.89E-01,4.21E-03
1.09E-04,5.41E-01,4.07E-03
1.10E-04,5.92E-01,3.94E-03
1.11E-04,6.40E-01,3.84E-03
1.13E-04,7.29E-01,3.70E-03
1.15E-04,8.08E-01,3.64E-03
1.17E-04,8.74E-01,3.67E-03
1.19E-04,9.27E-01,3.79E-03
1.21E-04,9.66E-01,3.98E-03
1.23E-04,9.90E-01,4.26E-03
1.25E-04,1.00E+00,4.61E-03
1.27E-04,9.94E-01,5.04E-03
1.29E-04,9.74E-01,5.53E-03
1.31E-04,9.39E-01,6.07E-03
1.33E-04,8.90E-01,6.67E-03
1.34E-04,8.27E-01,7.30E-03
1.36E-04,7.52E-01,7.96E-03
1.38E-04,6.66E-01,8.64E-03
1.40E-04,5.70E-01,9.33E-03
1.42E-04,4.65E-01,1.00E-02
1.44E-04,3.53E-01,1.07E-02
1.46E-04,2.36E-01,1.14E-02
1.48E-04,1.15E-01,1.20E-02
1.50E-04,-7.26E-03,1.26E-02
1.52E-04,-1.30E-01,1.31E-02
1.54E-04,-2.50E-01,1.36E-02
1.56E-04,-3.67E-01,1.40E-02
1.58E-04,-4.78E-01,1.43E-02
1.60E-04,-5.82E-01,1.46E-02
1.62E-04,-6.77E-01,1.47E-02
1.64E-04,-7.62E-01,1.48E-02
1.66E-04,-8.35E-01,1.48E-02
1.68E-04,-8.96E-01,1.47E-02
1.70E-04,-9.44E-01,1.46E-02
1.72E-04,-9.77E-01,1.43E-02
1.74E-04,-9.96E-01,1.40E-02
1.76E-04,-9.99E-01,1.36E-02
1.77E-04,-9.88E-01,1.31E-02
1.79E-04,-9.62E-01,1.26E-02
1.81E-04,-9.21E-01,1.20E-02
1.83E-04,-8.66E-01,1.14E-02
1.85E-04,-7.99E-01,1.07E-02
1.87E-04,-7.19E-01,1.00E-02
1.88E-04,-6.75E-01,9.66E-03
1.89E-04,-6.29E-01,9.31E-03
1.90E-04,-5.80E-01,8.95E-03
1.91E-04,-5.29E-01,8.59E-03
1.92E-04,-4.76E-01,8.24E-03
1.93E-04,-4.21E-01,7.89E-03
1.94E-04,-3.65E-01,7.54E-03
1.95E-04,-3.07E-01,7.20E-03
1.96E-04,-2.48E-01,6.86E-03
1.97E-04,-1.88E-01,6.53E-03
1.98E-04,-1.27E-01,6.21E-03
1.99E-04,-6.63E-02,5.90E-03
2.00E-04,-5.01E-03,5.61E-03
2.01E-04,5.63E-02,5.32E-03
2.02E-04,1.17E-01,5.05E-03
2.03E-04,1.78E-01,4.79E-03
2.04E-04,2.38E-01,4.55E-03
2.05E-04,2.97E-01,4.33E-03
2.06E-04,3.55E-01,4.12E-03
2.07E-04,4.12E-01,3.93E-03
2.08E-04,4.67E-01,3.76E-03
2.09E-04,5.20E-01,3.60E-03
2.10E-04,5.72E-01,3.47E-03
2.11E-04,6.21E-01,3.36E-03
2.12E-04,6.68E-01,3.27E-03
2.14E-04,7.54E-01,3.15E-03
2.16E-04,8.29E-01,3.11E-03
2.17E-04,8.91E-01,3.16E-03
2.19E-04,9.40E-01,3.30E-03
2.21E-04,9.75E-01,3.52E-03
2.23E-04,9.95E-01,3.82E-03
2.25E-04,1.00E+00,4.19E-03
2.27E-04,9.90E-01,4.64E-03
2.29E-04,9.65E-01,5.14E-03
2.31E-04,9.26E-01,5.70E-03
2.33E-04,8.73E-01,6.31E-03
2.35E-04,8.06E-01,6.95E-03
2.37E-04,7.28E-01,7.62E-03
2.39E-04,6.38E-01,8.30E-03
2.41E-04,5.39E-01,8.99E-03
2.43E-04,4.32E-01,9.68E-03
2.45E-04,3.18E-01,1.03E-02
2.47E-04,2.00E-01,1.10E-02
2.49E-04,7.86E-02,1.16E-02
2.50E-04,1.73E-02,1.19E-02
2.52E-04,-1.05E-01,1.24E-02
2.54E-04,-2.26E-01,1.29E-02
2.56E-04,-3.44E-01,1.33E-02
2.58E-04,-4.56E-01,1.37E-02
2.59E-04,-5.62E-01,1.40E-02
2.61E-04,-6.59E-01,1.41E-02
2.63E-04,-7.46E-01,1.43E-02
2.65E-04,-8.22E-01,1.43E-02
2.67E-04,-8.85E-01,1.42E-02
2.69E-04,-9.36E-01,1.41E-02
2.71E-04,-9.72E-01,1.38E-02
2.73E-04,-9.93E-01,1.35E-02
2.75E-04,-1.00E+00,1.31E-02
2.77E-04,-9.92E-01,1.27E-02
2.79E-04,-9.68E-01,1.22E-02
2.81E-04,-9.30E-01,1.16E-02
2.83E-04,-8.78E-01,1.10E-02
2.85E-04,-8.13E-01,1.03E-02
2.87E-04,-7.36E-01,9.61E-03
2.88E-04,-6.93E-01,9.26E-03
2.89E-04,-6.48E-01,8.91E-03
2.90E-04,-6.00E-01,8.55E-03
2.91E-04,-5.50E-01,8.19E-03
2.92E-04,-4.97E-01,7.84E-03
2.93E-04,-4.43E-01,7.49E-03
2.94E-04,-3.87E-01,7.14E-03
2.95E-04,-3.30E-01,6.79E-03
2.96E-04,-2.72E-01,6.45E-03
2.97E-04,-2.12E-01,6.12E-03
2.98E-04,-1.52E-01,5.80E-03
2.99E-04,-9.08E-02,5.49E-03
3.00E-04,-2.96E-02,5.18E-03
3.01E-04,3.18E-02,4.89E-03
3.01E-04,9.30E-02,4.62E-03
3.02E-04,1.54E-01,4.35E-03
3.03E-04,2.14E-01,4.11E-03
3.04E-04,2.74E-01,3.87E-03
3.05E-04,3.32E-01,3.66E-03
3.06E-04,3.89E-01,3.46E-03
3.07E-04,4.45E-01,3.28E-03
3.08E-04,4.99E-01,3.12E-03
3.09E-04,5.51E-01,2.98E-03
3.10E-04,6.02E-01,2.86E-03
3.11E-04,6.49E-01,2.76E-03
3.12E-04,6.95E-01,2.69E-03
3.14E-04,7.78E-01,2.59E-03
3.16E-04,8.49E-01,2.58E-03
3.18E-04,9.07E-01,2.66E-03
3.20E-04,9.52E-01,2.82E-03
3.22E-04,9.82E-01,3.07E-03
3.24E-04,9.98E-01,3.39E-03
3.26E-04,9.98E-01,3.79E-03
3.28E-04,9.84E-01,4.25E-03
3.30E-04,9.55E-01,4.77E-03
3.32E-04,9.11E-01,5.35E-03
3.34E-04,8.54E-01,5.97E-03
3.36E-04,7.84E-01,6.62E-03
3.38E-04,7.02E-01,7.29E-03
3.40E-04,6.09E-01,7.98E-03
3.42E-04,5.08E-01,8.67E-03
3.43E-04,3.99E-01,9.35E-03
3.45E-04,2.83E-01,1.00E-02
3.47E-04,1.64E-01,1.07E-02
3.49E-04,4.18E-02,1.13E-02
3.51E-04,-8.08E-02,1.18E-02
3.53E-04,-2.02E-01,1.23E-02
3.55E-04,-3.21E-01,1.27E-02
3.57E-04,-4.34E-01,1.31E-02
3.59E-04,-5.41E-01,1.34E-02
3.61E-04,-6.40E-01,1.36E-02
3.63E-04,-7.29E-01,1.37E-02
3.65E-04,-8.08E-01,1.38E-02
3.67E-04,-8.74E-01,1.37E-02
3.69E-04,-9.27E-01,1.36E-02
3.71E-04,-9.66E-01,1.34E-02
3.73E-04,-9.90E-01,1.31E-02
3.75E-04,-1.00E+00,1.27E-02
3.77E-04,-9.94E-01,1.23E-02
3.79E-04,-9.74E-01,1.17E-02
3.81E-04,-9.39E-01,1.12E-02
3.83E-04,-8.90E-01,1.06E-02
3.84E-04,-8.27E-01,9.92E-03
3.86E-04,-7.52E-01,9.24E-03
3.87E-04,-7.11E-01,8.89E-03
3.88E-04,-6.66E-01,8.54E-03
3.89E-04,-6.19E-01,8.18E-03
3.90E-04,-5.70E-01,7.82E-03
3.91E-04,-5.18E-01,7.47E-03
3.92E-04,-4.65E-01,7.12E-03
3.93E-04,-4.10E-01,6.77E-03
3.94E-04,-3.53E-01,6.42E-03
3.95E-04,-2.95E-01,6.08E-03
3.96E-04,-2.36E-01,5.74E-03
3.97E-04,-1.76E-01,5.42E-03
3.98E-04,-1.15E-01,5.10E-03
3.99E-04,-5.41E-02,4.79E-03
4.00E-04,7.26E-03,4.50E-03
4.01E-04,6.86E-02,4.22E-03
4.02E-04,1.30E-01,3.95E-03
4.03E-04,1.90E-01,3.70E-03
4.04E-04,2.50E-01,3.46E-03
4.05E-04,3.09E-01,3.24E-03
4.06E-04,3.67E-01,3.03E-03
4.07E-04,4.23E-01,2.85E-03
4.08E-04,4.78E-01,2.68E-03
4.09E-04,5.31E-01,2.53E-03
4.10E-04,5.82E-01,2.40E-03
4.11E-04,6.31E-01,2.30E-03
4.12E-04,6.77E-01,2.21E-03
4.13E-04,7.21E-01,2.14E-03
4.15E-04,8.00E-01,2.08E-03
4.17E-04,8.68E-01,2.10E-03
4.19E-04,9.22E-01,2.20E-03
4.21E-04,9.62E-01,2.39E-03
4.23E-04,9.88E-01,2.66E-03
4.25E-04,1.00E+00,3.00E-03
4.26E-04,9.96E-01,3.42E-03
4.28E-04,9.77E-01,3.90E-03
4.30E-04,9.43E-01,4.44E-03
4.32E-04,8.95E-01,5.03E-03
4.34E-04,8.34E-01,5.66E-03
4.36E-04,7.60E-01,6.32E-03
4.38E-04,6.75E-01,7.00E-03
4.40E-04,5.80E-01,7.69E-03
4.42E-04,4.76E-01,8.38E-03
4.44E-04,3.65E-01,9.06E-03
4.46E-04,2.48E-01,9.72E-03
4.48E-04,1.27E-01,1.03E-02
4.50E-04,5.01E-03,1.09E-02
4.52E-04,-1.17E-01,1.15E-02
4.54E-04,-2.38E-01,1.19E-02
4.56E-04,-3.55E-01,1.24E-02
4.58E-04,-4.67E-01,1.27E-02
4.60E-04,-5.72E-01,1.30E-02
4.62E-04,-6.68E-01,1.32E-02
4.64E-04,-7.54E-01,1.33E-02
4.66E-04,-8.29E-01,1.33E-02
4.67E-04,-8.91E-01,1.32E-02
4.69E-04,-9.40E-01,1.30E-02
4.71E-04,-9.75E-01,1.28E-02
4.73E-04,-9.95E-01,1.25E-02
4.75E-04,-1.00E+00,1.21E-02
4.77E-04,-9.90E-01,1.16E-02
4.79E-04,-9.65E-01,1.11E-02
4.81E-04,-9.26E-01,1.05E-02
4.83E-04,-8.73E-01,9.90E-03
4.85E-04,-8.06E-01,9.23E-03
4.87E-04,-7.28E-01,8.55E-03
4.88E-04,-6.84E-01,8.20E-03
4.89E-04,-6.38E-01,7.84E-03
4.90E-04,-5.90E-01,7.49E-03
4.91E-04,-5.39E-01,7.13E-03
4.92E-04,-4.87E-01,6.78E-03
4.93E-04,-4.32E-01,6.43E-03
4.94E-04,-3.76E-01,6.08E-03
4.95E-04,-3.18E-01,5.73E-03
4.96E-04,-2.60E-01,5.40E-03
4.97E-04,-2.00E-01,5.07E-03
4.98E-04,-1.40E-01,4.75E-03
4.99E-04,-7.86E-02,4.44E-03
5.00E-04,-1.73E-02,4.14E-03
5.01E-04,4.41E-02,3.85E-03
5.02E-04,1.05E-01,3.58E-03
5.03E-04,1.66E-01,3.32E-03
5.04E-04,2.26E-01,3.08E-03
5.05E-04,2.85E-01,2.85E-03
5.06E-04,3.44E-01,2.64E-03
5.07E-04,4.01E-01,2.44E-03
5.08E-04,4.56E-01,2.27E-03
5.09E-04,5.10E-01,2.11E-03
5.09E-04,5.62E-01,1.98E-03
5.10E-04,6.11E-01,1.86E-03
5.11E-04,6.59E-01,1.77E-03
5.12E-04,7.04E-01,1.69E-03
5.13E-04,7.46E-01,1.64E-03
5.15E-04,8.22E-01,1.60E-03
5.17E-04,8.85E-01,1.65E-03
5.19E-04,9.36E-01,1.78E-03
5.21E-04,9.72E-01,1.99E-03
5.23E-04,9.93E-01,2.28E-03
5.25E-04,1.00E+00,2.65E-03
5.27E-04,9.92E-01,3.09E-03
5.29E-04,9.68E-01,3.59E-03
5.31E-04,9.30E-01,4.15E-03
5.33E-04,8.78E-01,4.75E-03
5.35E-04,8.13E-01,5.39E-03
5.37E-04,7.36E-01,6.06E-03
5.39E-04,6.48E-01,6.74E-03
5.41E-04,5.50E-01,7.43E-03
5.43E-04,4.43E-01,8.12E-03
5.45E-04,3.30E-01,8.80E-03
5.47E-04,2.12E-01,9.45E-03
5.49E-04,9.08E-02,1.01E-02
5.50E-04,2.96E-02,1.04E-02
5.51E-04,-9.30E-02,1.09E-02
5.53E-04,-2.14E-01,1.14E-02
5.55E-04,-3.32E-01,1.18E-02
5.57E-04,-4.45E-01,1.22E-02
5.59E-04,-5.51E-01,1.25E-02
5.61E-04,-6.49E-01,1.27E-02
5.63E-04,-7.38E-01,1.28E-02
5.65E-04,-8.15E-01,1.28E-02
5.67E-04,-8.80E-01,1.28E-02
5.69E-04,-9.31E-01,1.26E-02
5.71E-04,-9.69E-01,1.24E-02
5.73E-04,-9.92E-01,1.21E-02
5.75E-04,-1.00E+00,1.17E-02
5.77E-04,-9.93E-01,1.13E-02
5.79E-04,-9.71E-01,1.08E-02
5.81E-04,-9.35E-01,1.02E-02
5.83E-04,-8.84E-01,9.57E-03
5.85E-04,-8.20E-01,8.92E-03
5.86E-04,-7.84E-01,8.58E-03
5.87E-04,-7.44E-01,8.23E-03
5.88E-04,-7.02E-01,7.88E-03
5.89E-04,-6.57E-01,7.53E-03
5.90E-04,-6.09E-01,7.18E-03
5.91E-04,-5.60E-01,6.82E-03
5.92E-04,-5.08E-01,6.47E-03
5.92E-04,-4.54E-01,6.11E-03
5.93E-04,-3.99E-01,5.77E-03
5.94E-04,-3.42E-01,5.42E-03
5.95E-04,-2.83E-01,5.08E-03
5.96E-04,-2.24E-01,4.75E-03
5.97E-04,-1.64E-01,4.43E-03
5.98E-04,-1.03E-01,4.11E-03
5.99E-04,-4.18E-02,3.81E-03
6.00E-04,1.95E-02,3.52E-03
6.01E-04,8.08E-02,3.24E-03
6.02E-04,1.42E-01,2.97E-03
6.03E-04,2.02E-01,2.72E-03
6.04E-04,2.62E-01,2.49E-03
6.05E-04,3.21E-01,2.27E-03
6.06E-04,3.78E-01,2.07E-03
6.07E-04,4.34E-01,1.89E-03
6.08E-04,4.89E-01,1.73E-03
6.09E-04,5.41E-01,1.58E-03
6.10E-04,5.92E-01,1.46E-03
6.11E-04,6.40E-01,1.36E-03
6.12E-04,6.86E-01,1.28E-03
6.13E-04,7.29E-01,1.21E-03
6.14E-04,7.70E-01,1.18E-03
6.16E-04,8.42E-01,1.16E-03
6.18E-04,9.02E-01,1.23E-03
6.20E-04,9.48E-01,1.39E-03
6.22E-04,9.80E-01,1.63E-03
6.24E-04,9.97E-01,1.94E-03
6.26E-04,9.99E-01,2.33E-03
6.28E-04,9.86E-01,2.79E-03
6.30E-04,9.58E-01,3.31E-03
6.32E-04,9.16E-01,3.88E-03
6.34E-04,8.60E-01,4.50E-03
6.35E-04,7.91E-01,5.15E-03
6.37E-04,7.11E-01,5.82E-03
6.39E-04,6.19E-01,6.51E-03
6.41E-04,5.18E-01,7.20E-03
6.43E-04,4.10E-01,7.89E-03
6.45E-04,2.95E-01,8.56E-03
6.47E-04,1.76E-01,9.20E-03
6.49E-04,5.41E-02,9.81E-03
6.51E-04,-6.86E-02,1.04E-02
6.53E-04,-1.90E-01,1.09E-02
6.55E-04,-3.09E-01,1.13E-02
6.57E-04,-4.23E-01,1.17E-02
6.59E-04,-5.31E-01,1.20E-02
6.61E-04,-6.31E-01,1.22E-02
6.63E-04,-7.21E-01,1.23E-02
6.65E-04,-8.00E-01,1.24E-02
6.67E-04,-8.68E-01,1.23E-02
6.69E-04,-9.22E-01,1.22E-02
6.71E-04,-9.62E-01,1.20E-02
6.73E-04,-9.88E-01,1.17E-02
6.75E-04,-1.00E+00,1.14E-02
6.76E-04,-9.96E-01,1.09E-02
6.78E-04,-9.77E-01,1.04E-02
6.80E-04,-9.43E-01,9.88E-03
6.82E-04,-8.95E-01,9.27E-03
6.84E-04,-8.34E-01,8.62E-03
6.85E-04,-7.99E-01,8.29E-03
6.86E-04,-7.60E-01,7.95E-03
6.87E-04,-7.19E-01,7.60E-03
6.88E-04,-6.75E-01,7.25E-03
6.89E-04,-6.29E-01,6.89E-03
6.90E-04,-5.80E-01,6.54E-03
6.91E-04,-5.29E-01,6.19E-03
6.92E-04,-4.76E-01,5.83E-03
6.93E-04,-4.21E-01,5.48E-03
6.94E-04,-3.65E-01,5.14E-03
6.95E-04,-3.07E-01,4.79E-03
6.96E-04,-2.48E-01,4.46E-03
6.97E-04,-1.88E-01,4.13E-03
6.99E-04,-6.63E-02,3.51E-03
7.00E-04,-5.01E-03,3.21E-03
7.02E-04,1.17E-01,2.66E-03
7.04E-04,2.38E-01,2.16E-03
7.05E-04,2.97E-01,1.94E-03
7.06E-04,3.55E-01,1.73E-03
7.07E-04,4.12E-01,1.54E-03
7.08E-04,4.67E-01,1.37E-03
7.09E-04,5.20E-01,1.22E-03
7.10E-04,5.72E-01,1.09E-03
7.11E-04,6.21E-01,9.78E-04
7.12E-04,6.68E-01,8.88E-04
7.13E-04,7.12E-01,8.19E-04
7.14E-04,7.54E-01,7.71E-04
7.15E-04,7.93E-01,7.44E-04
7.17E-04,8.61E-01,7.56E-04
7.18E-04,9.17E-01,8.53E-04
7.20E-04,9.59E-01,1.03E-03
7.22E-04,9.86E-01,1.30E-03
7.24E-04,9.99E-01,1.64E-03
7.26E-04,9.97E-01,2.05E-03
7.28E-04,9.79E-01,2.53E-03
7.30E-04,9.47E-01,3.06E-03
7.32E-04,9.01E-01,3.65E-03
7.34E-04,8.41E-01,4.28E-03
7.36E-04,7.68E-01,4.94E-03
7.38E-04,6.84E-01,5.62E-03
7.40E-04,5.90E-01,6.31E-03
7.42E-04,4.87E-01,7.00E-03
7.44E-04,3.76E-01,7.68E-03
7.46E-04,2.60E-01,8.35E-03
7.48E-04,1.40E-01,8.98E-03
7.50E-04,1.73E-02,9.57E-03
7.52E-04,-1.05E-01,1.01E-02
7.54E-04,-2.26E-01,1.06E-02
7.56E-04,-3.44E-01,1.10E-02
7.58E-04,-4.56E-01,1.14E-02
7.59E-04,-5.62E-01,1.16E-02
7.61E-04,-6.59E-01,1.18E-02
7.63E-04,-7.46E-01,1.20E-02
7.65E-04,-8.22E-01,1.20E-02
7.67E-04,-8.85E-01,1.19E-02
7.69E-04,-9.36E-01,1.18E-02
7.71E-04,-9.72E-01,1.15E-02
7.73E-04,-9.93E-01,1.12E-02
7.75E-04,-1.00E+00,1.08E-02
7.77E-04,-9.92E-01,1.04E-02
7.79E-04,-9.68E-01,9.87E-03
7.81E-04,-9.30E-01,9.30E-03
7.83E-04,-8.78E-01,8.68E-03
7.85E-04,-8.13E-01,8.02E-03
7.86E-04,-7.76E-01,7.68E-03
7.87E-04,-7.36E-01,7.34E-03
7.88E-04,-6.93E-01,6.99E-03
7.89E-04,-6.48E-01,6.64E-03
7.90E-04,-6.00E-01,6.28E-03
7.92E-04,-4.97E-01,5.58E-03
7.94E-04,-3.87E-01,4.88E-03
7.96E-04,-2.72E-01,4.20E-03
7.98E-04,-1.52E-01,3.54E-03
8.00E-04,-2.96E-02,2.93E-03
8.01E-04,9.30E-02,2.37E-03
8.03E-04,2.14E-01,1.86E-03
8.05E-04,3.32E-01,1.42E-03
8.07E-04,4.45E-01,1.04E-03
8.09E-04,5.51E-01,7.45E-04
8.10E-04,6.02E-01,6.26E-04
8.11E-04,6.49E-01,5.28E-04
8.12E-04,6.95E-01,4.51E-04
8.13E-04,7.38E-01,3.95E-04
8.14E-04,7.78E-01,3.60E-04
8.16E-04,8.49E-01,3.55E-04
8.18E-04,9.07E-01,4.36E-04
8.20E-04,9.52E-01,6.01E-04
8.22E-04,9.82E-01,8.48E-04
8.24E-04,9.98E-01,1.17E-03
8.26E-04,9.98E-01,1.57E-03
8.28E-04,9.84E-01,2.04E-03
8.30E-04,9.55E-01,2.56E-03
8.32E-04,9.11E-01,3.14E-03
8.34E-04,8.54E-01,3.76E-03
8.36E-04,7.84E-01,4.41E-03
8.38E-04,7.02E-01,5.09E-03
8.40E-04,6.09E-01,5.78E-03
8.42E-04,5.08E-01,6.48E-03
8.43E-04,3.99E-01,7.16E-03
8.45E-04,2.83E-01,7.83E-03
8.47E-04,1.64E-01,8.47E-03
8.49E-04,4.18E-02,9.07E-03
8.51E-04,-8.08E-02,9.63E-03
8.53E-04,-2.02E-01,1.01E-02
8.55E-04,-3.21E-01,1.06E-02
8.57E-04,-4.34E-01,1.09E-02
8.59E-04,-5.41E-01,1.12E-02
8.61E-04,-6.40E-01,1.14E-02
8.63E-04,-7.29E-01,1.16E-02
8.65E-04,-8.08E-01,1.16E-02
8.67E-04,-8.74E-01,1.16E-02
8.69E-04,-9.27E-01,1.14E-02
8.71E-04,-9.66E-01,1.12E-02
8.73E-04,-9.90E-01,1.09E-02
8.75E-04,-1.00E+00,1.05E-02
8.77E-04,-9.94E-01,1.01E-02
8.79E-04,-9.74E-01,9.60E-03
8.81E-04,-9.39E-01,9.04E-03
8.83E-04,-8.90E-01,8.43E-03
8.84E-04,-8.27E-01,7.78E-03
8.85E-04,-7.91E-01,7.45E-03
8.86E-04,-7.52E-01,7.10E-03
8.88E-04,-6.66E-01,6.40E-03
8.90E-04,-5.70E-01,5.70E-03
8.92E-04,-4.65E-01,4.99E-03
8.94E-04,-3.53E-01,4.30E-03
8.96E-04,-2.36E-01,3.62E-03
8.98E-04,-1.15E-01,2.98E-03
9.00E-04,7.26E-03,2.39E-03
9.02E-04,1.30E-01,1.84E-03
9.04E-04,2.50E-01,1.35E-03
9.06E-04,3.67E-01,9.26E-04
9.08E-04,4.78E-01,5.75E-04
9.10E-04,5.82E-01,3.02E-04
9.12E-04,6.77E-01,1.10E-04
9.13E-04,7.21E-01,4.59E-05
9.14E-04,7.62E-01,2.80E-06
9.15E-04,8.00E-01,-1.89E-05
9.16E-04,8.35E-01,-1.90E-05
9.17E-04,8.68E-01,2.40E-06
9.18E-04,8.96E-01,4.52E-05
9.19E-04,9.22E-01,1.09E-04
9.21E-04,9.62E-01,3.00E-04
9.23E-04,9.88E-01,5.72E-04
9.25E-04,1.00E+00,9.20E-04
9.26E-04,9.96E-01,1.34E-03
9.28E-04,9.77E-01,1.82E-03
9.30E-04,9.43E-01,2.37E-03
9.32E-04,8.95E-01,2.96E-03
9.34E-04,8.34E-01,3.59E-03
9.36E-04,7.60E-01,4.25E-03
9.38E-04,6.75E-01,4.94E-03
9.40E-04,5.80E-01,5.63E-03
9.42E-04,4.76E-01,6.32E-03
9.44E-04,3.65E-01,7.00E-03
9.46E-04,2.48E-01,7.67E-03
9.48E-04,1.27E-01,8.30E-03
9.50E-04,5.01E-03,8.88E-03
9.52E-04,-1.17E-01,9.42E-03
9.54E-04,-2.38E-01,9.90E-03
9.56E-04,-3.55E-01,1.03E-02
9.58E-04,-4.67E-01,1.07E-02
9.60E-04,-5.72E-01,1.09E-02
9.62E-04,-6.68E-01,1.11E-02
9.64E-04,-7.54E-01,1.12E-02
9.66E-04,-8.29E-01,1.12E-02
9.67E-04,-8.91E-01,1.12E-02
9.69E-04,-9.40E-01,1.10E-02
9.71E-04,-9.75E-01,1.08E-02
9.73E-04,-9.95E-01,1.05E-02
9.75E-04,-1.00E+00,1.01E-02
9.77E-04,-9.90E-01,9.61E-03
9.79E-04,-9.65E-01,9.09E-03
9.80E-04,-9.47E-01,8.80E-03
9.82E-04,-9.01E-01,8.20E-03
9.84E-04,-8.41E-01,7.56E-03
9.86E-04,-7.68E-01,6.89E-03
9.88E-04,-6.84E-01,6.19E-03
9.90E-04,-5.90E-01,5.49E-03
9.92E-04,-4.87E-01,4.78E-03
9.94E-04,-3.76E-01,4.08E-03
9.96E-04,-2.60E-01,3.41E-03
9.98E-04,-1.40E-01,2.76E-03
1.00E-03,-1.73E-02,2.15E-03
1.00E-03,-2.45E-15,2.07E-03
